!Murata Part Number: GRM033C80J104KE84
!These Parameters are Measured in Series Mode Connection
!Data Generated on Mar 14, 2019
!       o--ll--o
!Port1            Port2
!       o------o
!Operation Temp=25[degC], DC Bias Voltage=0[V]
!Freq. Start=100[Hz] Stop=6[GHz] 401[Steps]
# Hz S RI R 50
!Freq.(Hz) S11(Real) S11(Imag) S21(Real) S21(Imag) S12(Real) S12(Imag) S22(Real) S22(Imag)
100 0.9999005 -0.0063525 0.0000995 0.0063525 0.0000995 0.0063525 0.9999005 -0.0063525
105 0.9998943 -0.0066415 0.0001057 0.0066415 0.0001057 0.0066415 0.9998943 -0.0066415
109 0.9998876 -0.0069438 0.0001124 0.0069438 0.0001124 0.0069438 0.9998876 -0.0069438
114 0.9998805 -0.0072598 0.0001195 0.0072598 0.0001195 0.0072598 0.9998805 -0.0072598
120 0.9998728 -0.0075902 0.0001272 0.0075902 0.0001272 0.0075902 0.9998728 -0.0075902
125 0.9998645 -0.0079356 0.0001355 0.0079356 0.0001355 0.0079356 0.9998645 -0.0079356
131 0.9998556 -0.0082968 0.0001444 0.0082968 0.0001444 0.0082968 0.9998556 -0.0082968
137 0.9998459 -0.0086744 0.0001541 0.0086744 0.0001541 0.0086744 0.9998459 -0.0086744
143 0.9998356 -0.0090692 0.0001644 0.0090692 0.0001644 0.0090692 0.9998356 -0.0090692
150 0.9998244 -0.0094819 0.0001756 0.0094819 0.0001756 0.0094819 0.9998244 -0.0094819
156 0.9998123 -0.0099134 0.0001877 0.0099134 0.0001877 0.0099134 0.9998123 -0.0099134
164 0.9997993 -0.0103645 0.0002007 0.0103645 0.0002007 0.0103645 0.9997993 -0.0103645
171 0.9997853 -0.0108361 0.0002147 0.0108361 0.0002147 0.0108361 0.9997853 -0.0108361
179 0.9997701 -0.0113292 0.0002299 0.0113292 0.0002299 0.0113292 0.9997701 -0.0113292
187 0.9997538 -0.0118446 0.0002462 0.0118446 0.0002462 0.0118446 0.9997538 -0.0118446
196 0.9997361 -0.0123835 0.0002639 0.0123835 0.0002639 0.0123835 0.9997361 -0.0123835
205 0.9997171 -0.0129469 0.0002829 0.0129469 0.0002829 0.0129469 0.9997171 -0.0129469
214 0.9996966 -0.0135359 0.0003034 0.0135359 0.0003034 0.0135359 0.9996966 -0.0135359
224 0.9996744 -0.0141516 0.0003256 0.0141516 0.0003256 0.0141516 0.9996744 -0.0141516
234 0.9996504 -0.0147953 0.0003496 0.0147953 0.0003496 0.0147953 0.9996504 -0.0147953
245 0.9996245 -0.0154683 0.0003755 0.0154683 0.0003755 0.0154683 0.9996245 -0.0154683
256 0.9995965 -0.0161719 0.0004035 0.0161719 0.0004035 0.0161719 0.9995965 -0.0161719
268 0.9995662 -0.0169074 0.0004338 0.0169074 0.0004338 0.0169074 0.9995662 -0.0169074
280 0.9995334 -0.0176764 0.0004666 0.0176764 0.0004666 0.0176764 0.9995334 -0.0176764
293 0.9994980 -0.0184803 0.0005020 0.0184803 0.0005020 0.0184803 0.9994980 -0.0184803
306 0.9994596 -0.0193207 0.0005404 0.0193207 0.0005404 0.0193207 0.9994596 -0.0193207
320 0.9994179 -0.0201994 0.0005821 0.0201994 0.0005821 0.0201994 0.9994179 -0.0201994
335 0.9993728 -0.0211180 0.0006272 0.0211180 0.0006272 0.0211180 0.9993728 -0.0211180
350 0.9993239 -0.0220783 0.0006761 0.0220783 0.0006761 0.0220783 0.9993239 -0.0220783
366 0.9992709 -0.0230822 0.0007291 0.0230822 0.0007291 0.0230822 0.9992709 -0.0230822
383 0.9992133 -0.0241317 0.0007867 0.0241317 0.0007867 0.0241317 0.9992133 -0.0241317
401 0.9991508 -0.0252288 0.0008492 0.0252288 0.0008492 0.0252288 0.9991508 -0.0252288
419 0.9990829 -0.0263758 0.0009171 0.0263758 0.0009171 0.0263758 0.9990829 -0.0263758
438 0.9990091 -0.0275747 0.0009909 0.0275747 0.0009909 0.0275747 0.9990091 -0.0275747
458 0.9989289 -0.0288281 0.0010711 0.0288281 0.0010711 0.0288281 0.9989289 -0.0288281
479 0.9988417 -0.0301382 0.0011583 0.0301382 0.0011583 0.0301382 0.9988417 -0.0301382
501 0.9987470 -0.0315076 0.0012530 0.0315076 0.0012530 0.0315076 0.9987470 -0.0315076
524 0.9986439 -0.0329391 0.0013561 0.0329391 0.0013561 0.0329391 0.9986439 -0.0329391
548 0.9985317 -0.0344352 0.0014683 0.0344352 0.0014683 0.0344352 0.9985317 -0.0344352
573 0.9984097 -0.0359990 0.0015903 0.0359990 0.0015903 0.0359990 0.9984097 -0.0359990
600 0.9982769 -0.0376334 0.0017231 0.0376334 0.0017231 0.0376334 0.9982769 -0.0376334
627 0.9981325 -0.0393415 0.0018675 0.0393415 0.0018675 0.0393415 0.9981325 -0.0393415
656 0.9979752 -0.0411267 0.0020248 0.0411267 0.0020248 0.0411267 0.9979752 -0.0411267
686 0.9978040 -0.0429922 0.0021960 0.0429922 0.0021960 0.0429922 0.9978040 -0.0429922
717 0.9976177 -0.0449416 0.0023823 0.0449416 0.0023823 0.0449416 0.9976177 -0.0449416
750 0.9974148 -0.0469786 0.0025852 0.0469786 0.0025852 0.0469786 0.9974148 -0.0469786
784 0.9971939 -0.0491071 0.0028061 0.0491071 0.0028061 0.0491071 0.9971939 -0.0491071
820 0.9969533 -0.0513310 0.0030467 0.0513310 0.0030467 0.0513310 0.9969533 -0.0513310
858 0.9966914 -0.0536544 0.0033086 0.0536544 0.0033086 0.0536544 0.9966914 -0.0536544
897 0.9964061 -0.0560817 0.0035939 0.0560817 0.0035939 0.0560817 0.9964061 -0.0560817
938 0.9960953 -0.0586173 0.0039047 0.0586173 0.0039047 0.0586173 0.9960953 -0.0586173
981 0.9957569 -0.0612659 0.0042431 0.0612659 0.0042431 0.0612659 0.9957569 -0.0612659
1026 0.9953881 -0.0640322 0.0046119 0.0640322 0.0046119 0.0640322 0.9953881 -0.0640322
1073 0.9949865 -0.0669213 0.0050135 0.0669213 0.0050135 0.0669213 0.9949865 -0.0669213
1122 0.9945488 -0.0699382 0.0054512 0.0699382 0.0054512 0.0699382 0.9945488 -0.0699382
1174 0.9940719 -0.0730884 0.0059281 0.0730884 0.0059281 0.0730884 0.9940719 -0.0730884
1227 0.9935523 -0.0763772 0.0064477 0.0763772 0.0064477 0.0763772 0.9935523 -0.0763772
1283 0.9929861 -0.0798104 0.0070139 0.0798104 0.0070139 0.0798104 0.9929861 -0.0798104
1342 0.9923690 -0.0833938 0.0076310 0.0833938 0.0076310 0.0833938 0.9923690 -0.0833938
1404 0.9916966 -0.0871332 0.0083034 0.0871332 0.0083034 0.0871332 0.9916966 -0.0871332
1468 0.9909638 -0.0910348 0.0090362 0.0910348 0.0090362 0.0910348 0.9909638 -0.0910348
1535 0.9901652 -0.0951050 0.0098348 0.0951050 0.0098348 0.0951050 0.9901652 -0.0951050
1606 0.9892949 -0.0993499 0.0107051 0.0993499 0.0107051 0.0993499 0.9892949 -0.0993499
1679 0.9883467 -0.1037762 0.0116533 0.1037762 0.0116533 0.1037762 0.9883467 -0.1037762
1756 0.9873134 -0.1083903 0.0126866 0.1083903 0.0126866 0.1083903 0.9873134 -0.1083903
1836 0.9861878 -0.1131988 0.0138122 0.1131988 0.0138122 0.1131988 0.9861878 -0.1131988
1920 0.9849615 -0.1182085 0.0150385 0.1182085 0.0150385 0.1182085 0.9849615 -0.1182085
2008 0.9836260 -0.1234260 0.0163740 0.1234260 0.0163740 0.1234260 0.9836260 -0.1234260
2100 0.9821716 -0.1288579 0.0178284 0.1288579 0.0178284 0.1288579 0.9821716 -0.1288579
2196 0.9805882 -0.1345107 0.0194118 0.1345107 0.0194118 0.1345107 0.9805882 -0.1345107
2297 0.9788648 -0.1403909 0.0211352 0.1403909 0.0211352 0.1403909 0.9788648 -0.1403909
2402 0.9769893 -0.1465047 0.0230107 0.1465047 0.0230107 0.1465047 0.9769893 -0.1465047
2512 0.9749492 -0.1528580 0.0250508 0.1528580 0.0250508 0.1528580 0.9749492 -0.1528580
2627 0.9727305 -0.1594567 0.0272695 0.1594567 0.0272695 0.1594567 0.9727305 -0.1594567
2748 0.9703187 -0.1663058 0.0296813 0.1663058 0.0296813 0.1663058 0.9703187 -0.1663058
2873 0.9676980 -0.1734102 0.0323020 0.1734102 0.0323020 0.1734102 0.9676980 -0.1734102
3005 0.9648514 -0.1807740 0.0351486 0.1807740 0.0351486 0.1807740 0.9648514 -0.1807740
3143 0.9617612 -0.1884007 0.0382388 0.1884007 0.0382388 0.1884007 0.9617612 -0.1884007
3287 0.9584081 -0.1962928 0.0415919 0.1962928 0.0415919 0.1962928 0.9584081 -0.1962928
3437 0.9547719 -0.2044519 0.0452281 0.2044519 0.0452281 0.2044519 0.9547719 -0.2044519
3594 0.9508311 -0.2128783 0.0491689 0.2128783 0.0491689 0.2128783 0.9508311 -0.2128783
3759 0.9465632 -0.2215710 0.0534368 0.2215710 0.0534368 0.2215710 0.9465632 -0.2215710
3931 0.9419442 -0.2305277 0.0580558 0.2305277 0.0580558 0.2305277 0.9419442 -0.2305277
4111 0.9369493 -0.2397439 0.0630507 0.2397439 0.0630507 0.2397439 0.9369493 -0.2397439
4299 0.9315525 -0.2492136 0.0684475 0.2492136 0.0684475 0.2492136 0.9315525 -0.2492136
4496 0.9257269 -0.2589281 0.0742731 0.2589281 0.0742731 0.2589281 0.9257269 -0.2589281
4702 0.9194446 -0.2688768 0.0805554 0.2688768 0.0805554 0.2688768 0.9194446 -0.2688768
4918 0.9126772 -0.2790459 0.0873228 0.2790459 0.0873228 0.2790459 0.9126772 -0.2790459
5143 0.9053957 -0.2894191 0.0946043 0.2894191 0.0946043 0.2894191 0.9053957 -0.2894191
5378 0.8975709 -0.2999764 0.1024291 0.2999764 0.1024291 0.2999764 0.8975709 -0.2999764
5625 0.8891739 -0.3106948 0.1108261 0.3106948 0.1108261 0.3106948 0.8891739 -0.3106948
5882 0.8801757 -0.3215474 0.1198243 0.3215474 0.1198243 0.3215474 0.8801757 -0.3215474
6151 0.8705486 -0.3325036 0.1294514 0.3325036 0.1294514 0.3325036 0.8705486 -0.3325036
6433 0.8602659 -0.3435286 0.1397341 0.3435286 0.1397341 0.3435286 0.8602659 -0.3435286
6728 0.8493029 -0.3545836 0.1506971 0.3545836 0.1506971 0.3545836 0.8493029 -0.3545836
7036 0.8376370 -0.3656258 0.1623630 0.3656258 0.1623630 0.3656258 0.8376370 -0.3656258
7358 0.8252487 -0.3766078 0.1747513 0.3766078 0.1747513 0.3766078 0.8252487 -0.3766078
7695 0.8121221 -0.3874787 0.1878779 0.3874787 0.1878779 0.3874787 0.8121221 -0.3874787
8047 0.7982455 -0.3981835 0.2017545 0.3981835 0.2017545 0.3981835 0.7982455 -0.3981835
8416 0.7836122 -0.4086638 0.2163878 0.4086638 0.2163878 0.4086638 0.7836122 -0.4086638
8801 0.7682210 -0.4188581 0.2317790 0.4188581 0.2317790 0.4188581 0.7682210 -0.4188581
9204 0.7520769 -0.4287026 0.2479231 0.4287026 0.2479231 0.4287026 0.7520769 -0.4287026
9626 0.7351918 -0.4381317 0.2648082 0.4381317 0.2648082 0.4381317 0.7351918 -0.4381317
10066 0.7175846 -0.4470787 0.2824154 0.4470787 0.2824154 0.4470787 0.7175846 -0.4470787
10527 0.6992821 -0.4554769 0.3007179 0.4554769 0.3007179 0.4554769 0.6992821 -0.4554769
11009 0.6803188 -0.4632608 0.3196812 0.4632608 0.3196812 0.4632608 0.6803188 -0.4632608
11514 0.6607372 -0.4703667 0.3392628 0.4703667 0.3392628 0.4703667 0.6607372 -0.4703667
12041 0.6405877 -0.4767343 0.3594123 0.4767343 0.3594123 0.4767343 0.6405877 -0.4767343
12592 0.6199283 -0.4823078 0.3800717 0.4823078 0.3800717 0.4823078 0.6199283 -0.4823078
13169 0.5988238 -0.4870365 0.4011762 0.4870365 0.4011762 0.4870365 0.5988238 -0.4870365
13772 0.5773456 -0.4908766 0.4226544 0.4908766 0.4226544 0.4908766 0.5773456 -0.4908766
14402 0.5555708 -0.4937918 0.4444292 0.4937918 0.4444292 0.4937918 0.5555708 -0.4937918
15062 0.5335806 -0.4957541 0.4664194 0.4957541 0.4664194 0.4957541 0.5335806 -0.4957541
15752 0.5114596 -0.4967444 0.4885404 0.4967444 0.4885404 0.4967444 0.5114596 -0.4967444
16473 0.4892947 -0.4967531 0.5107053 0.4967531 0.5107053 0.4967531 0.4892947 -0.4967531
17227 0.4671730 -0.4957802 0.5328270 0.4957802 0.5328270 0.4957802 0.4671730 -0.4957802
18016 0.4451812 -0.4938355 0.5548188 0.4938355 0.5548188 0.4938355 0.4451812 -0.4938355
18841 0.4234040 -0.4909381 0.5765960 0.4909381 0.5765960 0.4909381 0.4234040 -0.4909381
19704 0.4019224 -0.4871159 0.5980776 0.4871159 0.5980776 0.4871159 0.4019224 -0.4871159
20606 0.3808133 -0.4824053 0.6191867 0.4824053 0.6191867 0.4824053 0.3808133 -0.4824053
21550 0.3601479 -0.4768501 0.6398521 0.4768501 0.6398521 0.4768501 0.3601479 -0.4768501
22537 0.3399910 -0.4705007 0.6600090 0.4705007 0.6600090 0.4705007 0.3399910 -0.4705007
23569 0.3204005 -0.4634128 0.6795995 0.4634128 0.6795995 0.4634128 0.3204005 -0.4634128
24648 0.3014265 -0.4556464 0.6985735 0.4556464 0.6985735 0.4556464 0.3014265 -0.4556464
25777 0.2831117 -0.4472650 0.7168883 0.4472650 0.7168883 0.4472650 0.2831117 -0.4472650
26957 0.2654907 -0.4383339 0.7345093 0.4383339 0.7345093 0.4383339 0.2654907 -0.4383339
28191 0.2485901 -0.4289194 0.7514099 0.4289194 0.7514099 0.4289194 0.2485901 -0.4289194
29482 0.2324292 -0.4190880 0.7675708 0.4190880 0.7675708 0.4190880 0.2324292 -0.4190880
30832 0.2170202 -0.4089051 0.7829798 0.4089051 0.7829798 0.4089051 0.2170202 -0.4089051
32244 0.2023681 -0.3984344 0.7976319 0.3984344 0.7976319 0.3984344 0.2023681 -0.3984344
33721 0.1884723 -0.3877373 0.8115277 0.3877373 0.8115277 0.3877373 0.1884723 -0.3877373
35265 0.1753261 -0.3768722 0.8246739 0.3768722 0.8246739 0.3768722 0.1753261 -0.3768722
36880 0.1629183 -0.3658939 0.8370817 0.3658939 0.8370817 0.3658939 0.1629183 -0.3658939
38569 0.1512332 -0.3548536 0.8487668 0.3548536 0.8487668 0.3548536 0.1512332 -0.3548536
40335 0.1402515 -0.3437987 0.8597485 0.3437987 0.8597485 0.3437987 0.1402515 -0.3437987
42182 0.1299510 -0.3327721 0.8700490 0.3327721 0.8700490 0.3327721 0.1299510 -0.3327721
44113 0.1203071 -0.3218131 0.8796929 0.3218131 0.8796929 0.3218131 0.1203071 -0.3218131
46134 0.1112933 -0.3109565 0.8887067 0.3109565 0.8887067 0.3109565 0.1112933 -0.3109565
48246 0.1028818 -0.3002332 0.8971182 0.3002332 0.8971182 0.3002332 0.1028818 -0.3002332
50455 0.0950439 -0.2896703 0.9049561 0.2896703 0.9049561 0.2896703 0.0950439 -0.2896703
52766 0.0877507 -0.2792912 0.9122493 0.2792912 0.9122493 0.2792912 0.0877507 -0.2792912
55182 0.0809727 -0.2691160 0.9190273 0.2691160 0.9190273 0.2691160 0.0809727 -0.2691160
57709 0.0746809 -0.2591613 0.9253191 0.2591613 0.9253191 0.2591613 0.0746809 -0.2591613
60352 0.0688469 -0.2494408 0.9311531 0.2494408 0.9311531 0.2494408 0.0688469 -0.2494408
63115 0.0634425 -0.2399657 0.9365575 0.2399657 0.9365575 0.2399657 0.0634425 -0.2399657
66005 0.0584408 -0.2307444 0.9415592 0.2307444 0.9415592 0.2307444 0.0584408 -0.2307444
69028 0.0538156 -0.2217833 0.9461844 0.2217833 0.9461844 0.2217833 0.0538156 -0.2217833
72189 0.0495418 -0.2130866 0.9504582 0.2130866 0.9504582 0.2130866 0.0495418 -0.2130866
75495 0.0455953 -0.2046568 0.9544047 0.2046568 0.9544047 0.2046568 0.0455953 -0.2046568
78952 0.0419535 -0.1964949 0.9580465 0.1964949 0.9580465 0.1964949 0.0419535 -0.1964949
82567 0.0385947 -0.1886004 0.9614053 0.1886004 0.9614053 0.1886004 0.0385947 -0.1886004
86348 0.0354986 -0.1809716 0.9645014 0.1809716 0.9645014 0.1809716 0.0354986 -0.1809716
90302 0.0326460 -0.1736060 0.9673540 0.1736060 0.9673540 0.1736060 0.0326460 -0.1736060
94437 0.0300187 -0.1665000 0.9699813 0.1665000 0.9699813 0.1665000 0.0300187 -0.1665000
98762 0.0276001 -0.1596492 0.9723999 0.1596492 0.9723999 0.1596492 0.0276001 -0.1596492
103284 0.0253743 -0.1530489 0.9746257 0.1530489 0.9746257 0.1530489 0.0253743 -0.1530489
108014 0.0233266 -0.1466936 0.9766734 0.1466936 0.9766734 0.1466936 0.0233266 -0.1466936
112960 0.0214433 -0.1405775 0.9785567 0.1405775 0.9785567 0.1405775 0.0214433 -0.1405775
118133 0.0197117 -0.1346947 0.9802883 0.1346947 0.9802883 0.1346947 0.0197117 -0.1346947
123542 0.0181201 -0.1290388 0.9818799 0.1290388 0.9818799 0.1290388 0.0181201 -0.1290388
129199 0.0166574 -0.1236033 0.9833426 0.1236033 0.9833426 0.1236033 0.0166574 -0.1236033
135116 0.0153135 -0.1183816 0.9846865 0.1183816 0.9846865 0.1183816 0.0153135 -0.1183816
141303 0.0140791 -0.1133671 0.9859209 0.1133671 0.9859209 0.1133671 0.0140791 -0.1133671
147774 0.0129454 -0.1085532 0.9870546 0.1085532 0.9870546 0.1085532 0.0129454 -0.1085532
154540 0.0119045 -0.1039331 0.9880955 0.1039331 0.9880955 0.1039331 0.0119045 -0.1039331
161617 0.0109489 -0.0995004 0.9890511 0.0995004 0.9890511 0.0995004 0.0109489 -0.0995004
169018 0.0100718 -0.0952485 0.9899282 0.0952485 0.9899282 0.0952485 0.0100718 -0.0952485
176758 0.0092669 -0.0911709 0.9907331 0.0911709 0.9907331 0.0911709 0.0092669 -0.0911709
184852 0.0085284 -0.0872615 0.9914716 0.0872615 0.9914716 0.0872615 0.0085284 -0.0872615
193316 0.0078509 -0.0835140 0.9921491 0.0835140 0.9921491 0.0835140 0.0078509 -0.0835140
202169 0.0072295 -0.0799224 0.9927705 0.0799224 0.9927705 0.0799224 0.0072295 -0.0799224
211427 0.0066596 -0.0764809 0.9933404 0.0764809 0.9933404 0.0764809 0.0066596 -0.0764809
221108 0.0061370 -0.0731836 0.9938630 0.0731836 0.9938630 0.0731836 0.0061370 -0.0731836
231233 0.0056578 -0.0700250 0.9943422 0.0700250 0.9943422 0.0700250 0.0056578 -0.0700250
241822 0.0052185 -0.0669998 0.9947815 0.0669998 0.9947815 0.0669998 0.0052185 -0.0669998
252896 0.0048159 -0.0641026 0.9951841 0.0641026 0.9951841 0.0641026 0.0048159 -0.0641026
264476 0.0044468 -0.0613284 0.9955532 0.0613284 0.9955532 0.0613284 0.0044468 -0.0613284
276587 0.0041085 -0.0586723 0.9958915 0.0586723 0.9958915 0.0586723 0.0041085 -0.0586723
289253 0.0037985 -0.0561294 0.9962015 0.0561294 0.9962015 0.0561294 0.0037985 -0.0561294
302498 0.0035144 -0.0536953 0.9964856 0.0536953 0.9964856 0.0536953 0.0035144 -0.0536953
316350 0.0032541 -0.0513654 0.9967459 0.0513654 0.9967459 0.0513654 0.0032541 -0.0513654
330837 0.0030155 -0.0491356 0.9969845 0.0491356 0.9969845 0.0491356 0.0030155 -0.0491356
345986 0.0027968 -0.0470016 0.9972032 0.0470016 0.9972032 0.0470016 0.0027968 -0.0470016
361830 0.0025965 -0.0449595 0.9974035 0.0449595 0.9974035 0.0449595 0.0025965 -0.0449595
378399 0.0024128 -0.0430055 0.9975872 0.0430055 0.9975872 0.0430055 0.0024128 -0.0430055
395726 0.0022444 -0.0411358 0.9977556 0.0411358 0.9977556 0.0411358 0.0022444 -0.0411358
413847 0.0020901 -0.0393470 0.9979099 0.0393470 0.9979099 0.0393470 0.0020901 -0.0393470
432798 0.0019486 -0.0376356 0.9980514 0.0376356 0.9980514 0.0376356 0.0019486 -0.0376356
452617 0.0018188 -0.0359984 0.9981812 0.0359984 0.9981812 0.0359984 0.0018188 -0.0359984
473344 0.0016997 -0.0344322 0.9983003 0.0344322 0.9983003 0.0344322 0.0016997 -0.0344322
495019 0.0015904 -0.0329339 0.9984096 0.0329339 0.9984096 0.0329339 0.0015904 -0.0329339
517687 0.0014900 -0.0315008 0.9985100 0.0315008 0.9985100 0.0315008 0.0014900 -0.0315008
541393 0.0013979 -0.0301299 0.9986021 0.0301299 0.9986021 0.0301299 0.0013979 -0.0301299
566185 0.0013132 -0.0288186 0.9986868 0.0288186 0.9986868 0.0288186 0.0013132 -0.0288186
592111 0.0012353 -0.0275644 0.9987647 0.0275644 0.9987647 0.0275644 0.0012353 -0.0275644
619225 0.0011637 -0.0263647 0.9988363 0.0263647 0.9988363 0.0263647 0.0011637 -0.0263647
647581 0.0010978 -0.0252173 0.9989022 0.0252173 0.9989022 0.0252173 0.0010978 -0.0252173
677235 0.0010370 -0.0241198 0.9989630 0.0241198 0.9989630 0.0241198 0.0010370 -0.0241198
708247 0.0009810 -0.0230701 0.9990190 0.0230701 0.9990190 0.0230701 0.0009810 -0.0230701
740679 0.0009294 -0.0220661 0.9990706 0.0220661 0.9990706 0.0220661 0.0009294 -0.0220661
774597 0.0008816 -0.0211058 0.9991184 0.0211058 0.9991184 0.0211058 0.0008816 -0.0211058
810067 0.0008375 -0.0201872 0.9991625 0.0201872 0.9991625 0.0201872 0.0008375 -0.0201872
847162 0.0007967 -0.0193086 0.9992033 0.0193086 0.9992033 0.0193086 0.0007967 -0.0193086
885955 0.0007589 -0.0184682 0.9992411 0.0184682 0.9992411 0.0184682 0.0007589 -0.0184682
926525 0.0007239 -0.0176644 0.9992761 0.0176644 0.9992761 0.0176644 0.0007239 -0.0176644
968953 0.0006914 -0.0168954 0.9993086 0.0168954 0.9993086 0.0168954 0.0006914 -0.0168954
1013323 0.0006613 -0.0161598 0.9993387 0.0161598 0.9993387 0.0161598 0.0006613 -0.0161598
1059725 0.0006333 -0.0154562 0.9993667 0.0154562 0.9993667 0.0154562 0.0006333 -0.0154562
1108252 0.0006072 -0.0147830 0.9993928 0.0147830 0.9993928 0.0147830 0.0006072 -0.0147830
1159002 0.0005830 -0.0141390 0.9994170 0.0141390 0.9994170 0.0141390 0.0005830 -0.0141390
1212075 0.0005604 -0.0135229 0.9994396 0.0135229 0.9994396 0.0135229 0.0005604 -0.0135229
1267578 0.0005394 -0.0129334 0.9994606 0.0129334 0.9994606 0.0129334 0.0005394 -0.0129334
1325623 0.0005198 -0.0123693 0.9994802 0.0123693 0.9994802 0.0123693 0.0005198 -0.0123693
1386327 0.0005015 -0.0118297 0.9994985 0.0118297 0.9994985 0.0118297 0.0005015 -0.0118297
1449809 0.0004845 -0.0113133 0.9995155 0.0113133 0.9995155 0.0113133 0.0004845 -0.0113133
1516199 0.0004687 -0.0108192 0.9995313 0.0108192 0.9995313 0.0108192 0.0004687 -0.0108192
1585629 0.0004539 -0.0103463 0.9995461 0.0103463 0.9995461 0.0103463 0.0004539 -0.0103463
1658239 0.0004401 -0.0098939 0.9995599 0.0098939 0.9995599 0.0098939 0.0004401 -0.0098939
1734173 0.0004273 -0.0094609 0.9995727 0.0094609 0.9995727 0.0094609 0.0004273 -0.0094609
1813585 0.0004153 -0.0090465 0.9995847 0.0090465 0.9995847 0.0090465 0.0004153 -0.0090465
1896632 0.0004042 -0.0086499 0.9995958 0.0086499 0.9995958 0.0086499 0.0004042 -0.0086499
1983483 0.0003939 -0.0082703 0.9996061 0.0082703 0.9996061 0.0082703 0.0003939 -0.0082703
2074311 0.0003843 -0.0079071 0.9996157 0.0079071 0.9996157 0.0079071 0.0003843 -0.0079071
