!Murata Part Number: GRM033R60J474KE90
!These Parameters are Measured in Series Mode Connection
!Data Generated on Mar 14, 2019
!       o--ll--o
!Port1            Port2
!       o------o
!Operation Temp=25[degC], DC Bias Voltage=0[V]
!Freq. Start=100[Hz] Stop=6[GHz] 401[Steps]
# Hz S RI R 50
!Freq.(Hz) S11(Real) S11(Imag) S21(Real) S21(Imag) S12(Real) S12(Imag) S22(Real) S22(Imag)
100 0.9991569 -0.0242846 0.0008431 0.0242846 0.0008431 0.0242846 0.9991569 -0.0242846
105 0.9990917 -0.0253890 0.0009083 0.0253890 0.0009083 0.0253890 0.9990917 -0.0253890
109 0.9990208 -0.0265435 0.0009792 0.0265435 0.0009792 0.0265435 0.9990208 -0.0265435
114 0.9989436 -0.0277502 0.0010564 0.0277502 0.0010564 0.0277502 0.9989436 -0.0277502
120 0.9988596 -0.0290116 0.0011404 0.0290116 0.0011404 0.0290116 0.9988596 -0.0290116
125 0.9987680 -0.0303299 0.0012320 0.0303299 0.0012320 0.0303299 0.9987680 -0.0303299
131 0.9986683 -0.0317078 0.0013317 0.0317078 0.0013317 0.0317078 0.9986683 -0.0317078
137 0.9985598 -0.0331478 0.0014402 0.0331478 0.0014402 0.0331478 0.9985598 -0.0331478
143 0.9984417 -0.0346526 0.0015583 0.0346526 0.0015583 0.0346526 0.9984417 -0.0346526
150 0.9983131 -0.0362251 0.0016869 0.0362251 0.0016869 0.0362251 0.9983131 -0.0362251
156 0.9981731 -0.0378683 0.0018269 0.0378683 0.0018269 0.0378683 0.9981731 -0.0378683
164 0.9980208 -0.0395852 0.0019792 0.0395852 0.0019792 0.0395852 0.9980208 -0.0395852
171 0.9978551 -0.0413791 0.0021449 0.0413791 0.0021449 0.0413791 0.9978551 -0.0413791
179 0.9976748 -0.0432532 0.0023252 0.0432532 0.0023252 0.0432532 0.9976748 -0.0432532
187 0.9974787 -0.0452111 0.0025213 0.0452111 0.0025213 0.0452111 0.9974787 -0.0452111
196 0.9972655 -0.0472564 0.0027345 0.0472564 0.0027345 0.0472564 0.9972655 -0.0472564
205 0.9970336 -0.0493929 0.0029664 0.0493929 0.0029664 0.0493929 0.9970336 -0.0493929
214 0.9967814 -0.0516244 0.0032186 0.0516244 0.0032186 0.0516244 0.9967814 -0.0516244
224 0.9965072 -0.0539551 0.0034928 0.0539551 0.0034928 0.0539551 0.9965072 -0.0539551
234 0.9962091 -0.0563892 0.0037909 0.0563892 0.0037909 0.0563892 0.9962091 -0.0563892
245 0.9958850 -0.0589311 0.0041150 0.0589311 0.0041150 0.0589311 0.9958850 -0.0589311
256 0.9955328 -0.0615855 0.0044672 0.0615855 0.0044672 0.0615855 0.9955328 -0.0615855
268 0.9951498 -0.0643570 0.0048502 0.0643570 0.0048502 0.0643570 0.9951498 -0.0643570
280 0.9947335 -0.0672507 0.0052665 0.0672507 0.0052665 0.0672507 0.9947335 -0.0672507
293 0.9942810 -0.0702716 0.0057190 0.0702716 0.0057190 0.0702716 0.9942810 -0.0702716
306 0.9937889 -0.0734250 0.0062111 0.0734250 0.0062111 0.0734250 0.9937889 -0.0734250
320 0.9932540 -0.0767165 0.0067460 0.0767165 0.0067460 0.0767165 0.9932540 -0.0767165
335 0.9926723 -0.0801516 0.0073277 0.0801516 0.0073277 0.0801516 0.9926723 -0.0801516
350 0.9920398 -0.0837363 0.0079602 0.0837363 0.0079602 0.0837363 0.9920398 -0.0837363
366 0.9913518 -0.0874764 0.0086482 0.0874764 0.0086482 0.0874764 0.9913518 -0.0874764
383 0.9906036 -0.0913782 0.0093964 0.0913782 0.0093964 0.0913782 0.9906036 -0.0913782
401 0.9897897 -0.0954479 0.0102103 0.0954479 0.0102103 0.0954479 0.9897897 -0.0954479
419 0.9889044 -0.0996919 0.0110956 0.0996919 0.0110956 0.0996919 0.9889044 -0.0996919
438 0.9879411 -0.1041169 0.0120589 0.1041169 0.0120589 0.1041169 0.9879411 -0.1041169
458 0.9868931 -0.1087293 0.0131069 0.1087293 0.0131069 0.1087293 0.9868931 -0.1087293
479 0.9857529 -0.1135360 0.0142471 0.1135360 0.0142471 0.1135360 0.9857529 -0.1135360
501 0.9845122 -0.1185435 0.0154878 0.1185435 0.0154878 0.1185435 0.9845122 -0.1185435
524 0.9831624 -0.1237587 0.0168376 0.1237587 0.0168376 0.1237587 0.9831624 -0.1237587
548 0.9816938 -0.1291882 0.0183062 0.1291882 0.0183062 0.1291882 0.9816938 -0.1291882
573 0.9800961 -0.1348386 0.0199039 0.1348386 0.0199039 0.1348386 0.9800961 -0.1348386
600 0.9783583 -0.1407164 0.0216417 0.1407164 0.0216417 0.1407164 0.9783583 -0.1407164
627 0.9764683 -0.1468278 0.0235317 0.1468278 0.0235317 0.1468278 0.9764683 -0.1468278
656 0.9744132 -0.1531788 0.0255868 0.1531788 0.0255868 0.1531788 0.9744132 -0.1531788
686 0.9721792 -0.1597750 0.0278208 0.1597750 0.0278208 0.1597750 0.9721792 -0.1597750
717 0.9697514 -0.1666217 0.0302486 0.1666217 0.0302486 0.1666217 0.9697514 -0.1666217
750 0.9671140 -0.1737235 0.0328860 0.1737235 0.0328860 0.1737235 0.9671140 -0.1737235
784 0.9642498 -0.1810845 0.0357502 0.1810845 0.0357502 0.1810845 0.9642498 -0.1810845
820 0.9611410 -0.1887079 0.0388590 0.1887079 0.0388590 0.1887079 0.9611410 -0.1887079
858 0.9577681 -0.1965961 0.0422319 0.1965961 0.0422319 0.1965961 0.9577681 -0.1965961
897 0.9541110 -0.2047504 0.0458890 0.2047504 0.0458890 0.2047504 0.9541110 -0.2047504
938 0.9501480 -0.2131709 0.0498520 0.2131709 0.0498520 0.2131709 0.9501480 -0.2131709
981 0.9458566 -0.2218564 0.0541434 0.2218564 0.0541434 0.2218564 0.9458566 -0.2218564
1026 0.9412128 -0.2308041 0.0587872 0.2308041 0.0587872 0.2308041 0.9412128 -0.2308041
1073 0.9361920 -0.2400094 0.0638080 0.2400094 0.0638080 0.2400094 0.9361920 -0.2400094
1122 0.9307682 -0.2494658 0.0692318 0.2494658 0.0692318 0.2494658 0.9307682 -0.2494658
1174 0.9249148 -0.2591644 0.0750852 0.2591644 0.0750852 0.2591644 0.9249148 -0.2591644
1227 0.9186041 -0.2690940 0.0813959 0.2690940 0.0813959 0.2690940 0.9186041 -0.2690940
1283 0.9118081 -0.2792408 0.0881919 0.2792408 0.0881919 0.2792408 0.9118081 -0.2792408
1342 0.9044982 -0.2895881 0.0955018 0.2895881 0.0955018 0.2895881 0.9044982 -0.2895881
1404 0.8966457 -0.3001158 0.1033543 0.3001158 0.1033543 0.3001158 0.8966457 -0.3001158
1468 0.8882220 -0.3108007 0.1117780 0.3108007 0.1117780 0.3108007 0.8882220 -0.3108007
1535 0.8791988 -0.3216159 0.1208012 0.3216159 0.1208012 0.3216159 0.8791988 -0.3216159
1606 0.8695490 -0.3325308 0.1304510 0.3325308 0.1304510 0.3325308 0.8695490 -0.3325308
1679 0.8592465 -0.3435107 0.1407535 0.3435107 0.1407535 0.3435107 0.8592465 -0.3435107
1756 0.8482669 -0.3545172 0.1517331 0.3545172 0.1517331 0.3545172 0.8482669 -0.3545172
1836 0.8365885 -0.3655075 0.1634115 0.3655075 0.1634115 0.3655075 0.8365885 -0.3655075
1920 0.8241922 -0.3764350 0.1758078 0.3764350 0.1758078 0.3764350 0.8241922 -0.3764350
2008 0.8110624 -0.3872491 0.1889376 0.3872491 0.1889376 0.3872491 0.8110624 -0.3872491
2100 0.7971879 -0.3978953 0.2028121 0.3978953 0.2028121 0.3978953 0.7971879 -0.3978953
2196 0.7825621 -0.4083160 0.2174379 0.4083160 0.2174379 0.4083160 0.7825621 -0.4083160
2297 0.7671840 -0.4184503 0.2328160 0.4184503 0.2328160 0.4184503 0.7671840 -0.4184503
2402 0.7510587 -0.4282351 0.2489413 0.4282351 0.2489413 0.4282351 0.7510587 -0.4282351
2512 0.7341979 -0.4376053 0.2658021 0.4376053 0.2658021 0.4376053 0.7341979 -0.4376053
2627 0.7166206 -0.4464950 0.2833794 0.4464950 0.2833794 0.4464950 0.7166206 -0.4464950
2748 0.6983531 -0.4548381 0.3016469 0.4548381 0.3016469 0.4548381 0.6983531 -0.4548381
2873 0.6794297 -0.4625695 0.3205703 0.4625695 0.3205703 0.4625695 0.6794297 -0.4625695
3005 0.6598926 -0.4696260 0.3401074 0.4696260 0.3401074 0.4696260 0.6598926 -0.4696260
3143 0.6397916 -0.4759477 0.3602084 0.4759477 0.3602084 0.4759477 0.6397916 -0.4759477
3287 0.6191842 -0.4814789 0.3808158 0.4814789 0.3808158 0.4814789 0.6191842 -0.4814789
3437 0.5981351 -0.4861693 0.4018649 0.4861693 0.4018649 0.4861693 0.5981351 -0.4861693
3594 0.5767153 -0.4899753 0.4232847 0.4899753 0.4232847 0.4899753 0.5767153 -0.4899753
3759 0.5550011 -0.4928606 0.4449989 0.4928606 0.4449989 0.4928606 0.5550011 -0.4928606
3931 0.5330738 -0.4947971 0.4669262 0.4947971 0.4669262 0.4947971 0.5330738 -0.4947971
4111 0.5110176 -0.4957661 0.4889824 0.4957661 0.4889824 0.4957661 0.5110176 -0.4957661
4299 0.4889189 -0.4957579 0.5110811 0.4957579 0.5110811 0.4957579 0.4889189 -0.4957579
4496 0.4668649 -0.4947727 0.5331351 0.4947727 0.5331351 0.4947727 0.4668649 -0.4947727
4702 0.4449420 -0.4928203 0.5550580 0.4928203 0.5550580 0.4928203 0.4449420 -0.4928203
4918 0.4232343 -0.4899199 0.5767657 0.4899199 0.5767657 0.4899199 0.4232343 -0.4899199
5143 0.4018229 -0.4860998 0.5981771 0.4860998 0.5981771 0.4860998 0.4018229 -0.4860998
5378 0.3807842 -0.4813964 0.6192158 0.4813964 0.6192158 0.4813964 0.3807842 -0.4813964
5625 0.3601890 -0.4758538 0.6398110 0.4758538 0.6398110 0.4758538 0.3601890 -0.4758538
5882 0.3401016 -0.4695224 0.6598984 0.4695224 0.6598984 0.4695224 0.3401016 -0.4695224
6151 0.3205793 -0.4624580 0.6794207 0.4624580 0.6794207 0.4624580 0.3205793 -0.4624580
6433 0.3016718 -0.4547210 0.6983282 0.4547210 0.6983282 0.4547210 0.3016718 -0.4547210
6728 0.2834210 -0.4463744 0.7165790 0.4463744 0.7165790 0.4463744 0.2834210 -0.4463744
7036 0.2658606 -0.4374836 0.7341394 0.4374836 0.7341394 0.4374836 0.2658606 -0.4374836
7358 0.2490170 -0.4281147 0.7509830 0.4281147 0.7509830 0.4281147 0.2490170 -0.4281147
7695 0.2329085 -0.4183336 0.7670915 0.4183336 0.7670915 0.4183336 0.2329085 -0.4183336
8047 0.2175467 -0.4082053 0.7824533 0.4082053 0.7824533 0.4082053 0.2175467 -0.4082053
8416 0.2029362 -0.3977930 0.7970638 0.3977930 0.7970638 0.3977930 0.2029362 -0.3977930
8801 0.1890756 -0.3871572 0.8109244 0.3871572 0.8109244 0.3871572 0.1890756 -0.3871572
9204 0.1759582 -0.3763555 0.8240418 0.3763555 0.8240418 0.3763555 0.1759582 -0.3763555
9626 0.1635724 -0.3654420 0.8364276 0.3654420 0.8364276 0.3654420 0.1635724 -0.3654420
10066 0.1519024 -0.3544671 0.8480976 0.3544671 0.8480976 0.3544671 0.1519024 -0.3544671
10527 0.1409291 -0.3434771 0.8590709 0.3434771 0.8590709 0.3434771 0.1409291 -0.3434771
11009 0.1306303 -0.3325142 0.8693697 0.3325142 0.8693697 0.3325142 0.1306303 -0.3325142
11514 0.1209818 -0.3216169 0.8790182 0.3216169 0.8790182 0.3216169 0.1209818 -0.3216169
12041 0.1119575 -0.3108191 0.8880425 0.3108191 0.8880425 0.3108191 0.1119575 -0.3108191
12592 0.1035302 -0.3001513 0.8964698 0.3001513 0.8964698 0.3001513 0.1035302 -0.3001513
13169 0.0956718 -0.2896400 0.9043282 0.2896400 0.9043282 0.2896400 0.0956718 -0.2896400
13772 0.0883539 -0.2793080 0.9116461 0.2793080 0.9116461 0.2793080 0.0883539 -0.2793080
14402 0.0815478 -0.2691752 0.9184522 0.2691752 0.9184522 0.2691752 0.0815478 -0.2691752
15062 0.0752254 -0.2592580 0.9247746 0.2592580 0.9247746 0.2592580 0.0752254 -0.2592580
15752 0.0693587 -0.2495700 0.9306413 0.2495700 0.9306413 0.2495700 0.0693587 -0.2495700
16473 0.0639204 -0.2401224 0.9360796 0.2401224 0.9360796 0.2401224 0.0639204 -0.2401224
17227 0.0588842 -0.2309238 0.9411158 0.2309238 0.9411158 0.2309238 0.0588842 -0.2309238
18016 0.0542245 -0.2219806 0.9457755 0.2219806 0.9457755 0.2219806 0.0542245 -0.2219806
18841 0.0499167 -0.2132974 0.9500833 0.2132974 0.9500833 0.2132974 0.0499167 -0.2132974
19704 0.0459374 -0.2048772 0.9540626 0.2048772 0.9540626 0.2048772 0.0459374 -0.2048772
20606 0.0422642 -0.1967211 0.9577358 0.1967211 0.9577358 0.1967211 0.0422642 -0.1967211
21550 0.0388758 -0.1888291 0.9611242 0.1888291 0.9611242 0.1888291 0.0388758 -0.1888291
22537 0.0357521 -0.1812001 0.9642479 0.1812001 0.9642479 0.1812001 0.0357521 -0.1812001
23569 0.0328741 -0.1738318 0.9671259 0.1738318 0.9671259 0.1738318 0.0328741 -0.1738318
24648 0.0302238 -0.1667211 0.9697762 0.1667211 0.9697762 0.1667211 0.0302238 -0.1667211
25777 0.0277846 -0.1598642 0.9722154 0.1598642 0.9722154 0.1598642 0.0277846 -0.1598642
26957 0.0255405 -0.1532565 0.9744595 0.1532565 0.9744595 0.1532565 0.0255405 -0.1532565
28191 0.0234768 -0.1468931 0.9765232 0.1468931 0.9765232 0.1468931 0.0234768 -0.1468931
29482 0.0215798 -0.1407686 0.9784202 0.1407686 0.9784202 0.1407686 0.0215798 -0.1407686
30832 0.0198366 -0.1348771 0.9801634 0.1348771 0.9801634 0.1348771 0.0198366 -0.1348771
32244 0.0182352 -0.1292126 0.9817648 0.1292126 0.9817648 0.1292126 0.0182352 -0.1292126
33721 0.0167645 -0.1237689 0.9832355 0.1237689 0.9832355 0.1237689 0.0167645 -0.1237689
35265 0.0154142 -0.1185395 0.9845858 0.1185395 0.9845858 0.1185395 0.0154142 -0.1185395
36880 0.0141746 -0.1135179 0.9858254 0.1135179 0.9858254 0.1135179 0.0141746 -0.1135179
38569 0.0130369 -0.1086977 0.9869631 0.1086977 0.9869631 0.1086977 0.0130369 -0.1086977
40335 0.0119929 -0.1040722 0.9880071 0.1040722 0.9880071 0.1040722 0.0119929 -0.1040722
42182 0.0110349 -0.0996349 0.9889651 0.0996349 0.9889651 0.0996349 0.0110349 -0.0996349
44113 0.0101560 -0.0953792 0.9898440 0.0953792 0.9898440 0.0953792 0.0101560 -0.0953792
46134 0.0093496 -0.0912989 0.9906504 0.0912989 0.9906504 0.0912989 0.0093496 -0.0912989
48246 0.0086098 -0.0873875 0.9913902 0.0873875 0.9913902 0.0873875 0.0086098 -0.0873875
50455 0.0079310 -0.0836388 0.9920690 0.0836388 0.9920690 0.0836388 0.0079310 -0.0836388
52766 0.0073083 -0.0800467 0.9926917 0.0800467 0.9926917 0.0800467 0.0073083 -0.0800467
55182 0.0067369 -0.0766053 0.9932631 0.0766053 0.9932631 0.0766053 0.0067369 -0.0766053
57709 0.0062125 -0.0733087 0.9937875 0.0733087 0.9937875 0.0733087 0.0062125 -0.0733087
60352 0.0057312 -0.0701513 0.9942688 0.0701513 0.9942688 0.0701513 0.0057312 -0.0701513
63115 0.0052895 -0.0671277 0.9947105 0.0671277 0.9947105 0.0671277 0.0052895 -0.0671277
66005 0.0048839 -0.0642323 0.9951161 0.0642323 0.9951161 0.0642323 0.0048839 -0.0642323
69028 0.0045114 -0.0614602 0.9954886 0.0614602 0.9954886 0.0614602 0.0045114 -0.0614602
72189 0.0041693 -0.0588062 0.9958307 0.0588062 0.9958307 0.0588062 0.0041693 -0.0588062
75495 0.0038550 -0.0562655 0.9961450 0.0562655 0.9961450 0.0562655 0.0038550 -0.0562655
78952 0.0035661 -0.0538334 0.9964339 0.0538334 0.9964339 0.0538334 0.0035661 -0.0538334
82567 0.0033006 -0.0515055 0.9966994 0.0515055 0.9966994 0.0515055 0.0033006 -0.0515055
86348 0.0030565 -0.0492774 0.9969435 0.0492774 0.9969435 0.0492774 0.0030565 -0.0492774
90302 0.0028319 -0.0471448 0.9971681 0.0471448 0.9971681 0.0471448 0.0028319 -0.0471448
94437 0.0026253 -0.0451039 0.9973747 0.0451039 0.9973747 0.0451039 0.0026253 -0.0451039
98762 0.0024352 -0.0431506 0.9975648 0.0431506 0.9975648 0.0431506 0.0024352 -0.0431506
103284 0.0022603 -0.0412813 0.9977397 0.0412813 0.9977397 0.0412813 0.0022603 -0.0412813
108014 0.0020992 -0.0394924 0.9979008 0.0394924 0.9979008 0.0394924 0.0020992 -0.0394924
112960 0.0019509 -0.0377806 0.9980491 0.0377806 0.9980491 0.0377806 0.0019509 -0.0377806
118133 0.0018143 -0.0361424 0.9981857 0.0361424 0.9981857 0.0361424 0.0018143 -0.0361424
123542 0.0016884 -0.0345748 0.9983116 0.0345748 0.9983116 0.0345748 0.0016884 -0.0345748
129199 0.0015725 -0.0330748 0.9984275 0.0330748 0.9984275 0.0330748 0.0015725 -0.0330748
135116 0.0014658 -0.0316395 0.9985342 0.0316395 0.9985342 0.0316395 0.0014658 -0.0316395
141303 0.0013674 -0.0302660 0.9986326 0.0302660 0.9986326 0.0302660 0.0013674 -0.0302660
147774 0.0012768 -0.0289518 0.9987232 0.0289518 0.9987232 0.0289518 0.0012768 -0.0289518
154540 0.0011933 -0.0276944 0.9988067 0.0276944 0.9988067 0.0276944 0.0011933 -0.0276944
161617 0.0011163 -0.0264913 0.9988837 0.0264913 0.9988837 0.0264913 0.0011163 -0.0264913
169018 0.0010454 -0.0253401 0.9989546 0.0253401 0.9989546 0.0253401 0.0010454 -0.0253401
176758 0.0009801 -0.0242388 0.9990199 0.0242388 0.9990199 0.0242388 0.0009801 -0.0242388
184852 0.0009199 -0.0231850 0.9990801 0.0231850 0.9990801 0.0231850 0.0009199 -0.0231850
193316 0.0008645 -0.0221769 0.9991355 0.0221769 0.9991355 0.0221769 0.0008645 -0.0221769
202169 0.0008134 -0.0212125 0.9991866 0.0212125 0.9991866 0.0212125 0.0008134 -0.0212125
211427 0.0007664 -0.0202898 0.9992336 0.0202898 0.9992336 0.0202898 0.0007664 -0.0202898
221108 0.0007230 -0.0194071 0.9992770 0.0194071 0.9992770 0.0194071 0.0007230 -0.0194071
231233 0.0006830 -0.0185627 0.9993170 0.0185627 0.9993170 0.0185627 0.0006830 -0.0185627
241822 0.0006462 -0.0177549 0.9993538 0.0177549 0.9993538 0.0177549 0.0006462 -0.0177549
252896 0.0006123 -0.0169823 0.9993877 0.0169823 0.9993877 0.0169823 0.0006123 -0.0169823
264476 0.0005809 -0.0162431 0.9994191 0.0162431 0.9994191 0.0162431 0.0005809 -0.0162431
276587 0.0005521 -0.0155362 0.9994479 0.0155362 0.9994479 0.0155362 0.0005521 -0.0155362
289253 0.0005254 -0.0148599 0.9994746 0.0148599 0.9994746 0.0148599 0.0005254 -0.0148599
302498 0.0005008 -0.0142131 0.9994992 0.0142131 0.9994992 0.0142131 0.0005008 -0.0142131
316350 0.0004781 -0.0135944 0.9995219 0.0135944 0.9995219 0.0135944 0.0004781 -0.0135944
330837 0.0004570 -0.0130026 0.9995430 0.0130026 0.9995430 0.0130026 0.0004570 -0.0130026
345986 0.0004376 -0.0124366 0.9995624 0.0124366 0.9995624 0.0124366 0.0004376 -0.0124366
361830 0.0004195 -0.0118952 0.9995805 0.0118952 0.9995805 0.0118952 0.0004195 -0.0118952
378399 0.0004028 -0.0113774 0.9995972 0.0113774 0.9995972 0.0113774 0.0004028 -0.0113774
395726 0.0003873 -0.0108822 0.9996127 0.0108822 0.9996127 0.0108822 0.0003873 -0.0108822
413847 0.0003729 -0.0104085 0.9996271 0.0104085 0.9996271 0.0104085 0.0003729 -0.0104085
432798 0.0003595 -0.0099554 0.9996405 0.0099554 0.9996405 0.0099554 0.0003595 -0.0099554
452617 0.0003470 -0.0095221 0.9996530 0.0095221 0.9996530 0.0095221 0.0003470 -0.0095221
473344 0.0003354 -0.0091076 0.9996646 0.0091076 0.9996646 0.0091076 0.0003354 -0.0091076
495019 0.0003245 -0.0087111 0.9996755 0.0087111 0.9996755 0.0087111 0.0003245 -0.0087111
517687 0.0003143 -0.0083318 0.9996857 0.0083318 0.9996857 0.0083318 0.0003143 -0.0083318
541393 0.0003048 -0.0079691 0.9996952 0.0079691 0.9996952 0.0079691 0.0003048 -0.0079691
566185 0.0002958 -0.0076220 0.9997042 0.0076220 0.9997042 0.0076220 0.0002958 -0.0076220
592111 0.0002874 -0.0072901 0.9997126 0.0072901 0.9997126 0.0072901 0.0002874 -0.0072901
619225 0.0002796 -0.0069725 0.9997204 0.0069725 0.9997204 0.0069725 0.0002796 -0.0069725
647581 0.0002722 -0.0066687 0.9997278 0.0066687 0.9997278 0.0066687 0.0002722 -0.0066687
677235 0.0002652 -0.0063780 0.9997348 0.0063780 0.9997348 0.0063780 0.0002652 -0.0063780
708247 0.0002586 -0.0060999 0.9997414 0.0060999 0.9997414 0.0060999 0.0002586 -0.0060999
740679 0.0002524 -0.0058338 0.9997476 0.0058338 0.9997476 0.0058338 0.0002524 -0.0058338
774597 0.0002466 -0.0055792 0.9997534 0.0055792 0.9997534 0.0055792 0.0002466 -0.0055792
810067 0.0002411 -0.0053355 0.9997589 0.0053355 0.9997589 0.0053355 0.0002411 -0.0053355
847162 0.0002359 -0.0051024 0.9997641 0.0051024 0.9997641 0.0051024 0.0002359 -0.0051024
885955 0.0002310 -0.0048793 0.9997690 0.0048793 0.9997690 0.0048793 0.0002310 -0.0048793
926525 0.0002264 -0.0046658 0.9997736 0.0046658 0.9997736 0.0046658 0.0002264 -0.0046658
968953 0.0002221 -0.0044614 0.9997779 0.0044614 0.9997779 0.0044614 0.0002221 -0.0044614
1013323 0.0002180 -0.0042659 0.9997820 0.0042659 0.9997820 0.0042659 0.0002180 -0.0042659
1059725 0.0002142 -0.0040787 0.9997858 0.0040787 0.9997858 0.0040787 0.0002142 -0.0040787
1108252 0.0002106 -0.0038995 0.9997894 0.0038995 0.9997894 0.0038995 0.0002106 -0.0038995
1159002 0.0002072 -0.0037281 0.9997928 0.0037281 0.9997928 0.0037281 0.0002072 -0.0037281
1212075 0.0002041 -0.0035639 0.9997959 0.0035639 0.9997959 0.0035639 0.0002041 -0.0035639
1267578 0.0002011 -0.0034068 0.9997989 0.0034068 0.9997989 0.0034068 0.0002011 -0.0034068
1325623 0.0001983 -0.0032564 0.9998017 0.0032564 0.9998017 0.0032564 0.0001983 -0.0032564
1386327 0.0001958 -0.0031124 0.9998042 0.0031124 0.9998042 0.0031124 0.0001958 -0.0031124
1449809 0.0001933 -0.0029745 0.9998067 0.0029745 0.9998067 0.0029745 0.0001933 -0.0029745
1516199 0.0001911 -0.0028425 0.9998089 0.0028425 0.9998089 0.0028425 0.0001911 -0.0028425
1585629 0.0001890 -0.0027161 0.9998110 0.0027161 0.9998110 0.0027161 0.0001890 -0.0027161
1658239 0.0001871 -0.0025951 0.9998129 0.0025951 0.9998129 0.0025951 0.0001871 -0.0025951
1734173 0.0001853 -0.0024792 0.9998147 0.0024792 0.9998147 0.0024792 0.0001853 -0.0024792
1813585 0.0001836 -0.0023682 0.9998164 0.0023682 0.9998164 0.0023682 0.0001836 -0.0023682
1896632 0.0001820 -0.0022619 0.9998180 0.0022619 0.9998180 0.0022619 0.0001820 -0.0022619
1983483 0.0001806 -0.0021601 0.9998194 0.0021601 0.9998194 0.0021601 0.0001806 -0.0021601
2074311 0.0001793 -0.0020626 0.9998207 0.0020626 0.9998207 0.0020626 0.0001793 -0.0020626
