!Murata Part Number: GRM155B31C105KA12
!These Parameters are Measured in Series Mode Connection
!       o--ll--o
!Port1            Port2
!       o------o
!Operation Temp=25[C], DC Bias Voltage=0[V]
!Freq. Start=100[Hz] Stop=6000000000[Hz] 401[Steps]
# Hz S RI R 50
!Freq.(Hz) S11(Real) S11(Imag) S21(Real) S21(Imag) S12(Real) S12(Imag) S22(Real) S22(Imag)
100 0.9971203 -0.0330013 0.0028797 0.0330013 0.0028797 0.0330013 0.9971203 -0.0330013
105 0.9969900 -0.0344786 0.0030100 0.0344786 0.0030100 0.0344786 0.9969900 -0.0344786
109 0.9968486 -0.0360231 0.0031514 0.0360231 0.0031514 0.0360231 0.9968486 -0.0360231
114 0.9966949 -0.0376376 0.0033051 0.0376376 0.0033051 0.0376376 0.9966949 -0.0376376
120 0.9965279 -0.0393251 0.0034721 0.0393251 0.0034721 0.0393251 0.9965279 -0.0393251
125 0.9963462 -0.0410888 0.0036538 0.0410888 0.0036538 0.0410888 0.9963462 -0.0410888
131 0.9961486 -0.0429317 0.0038514 0.0429317 0.0038514 0.0429317 0.9961486 -0.0429317
137 0.9959337 -0.0448572 0.0040663 0.0448572 0.0040663 0.0448572 0.9959337 -0.0448572
143 0.9956998 -0.0468688 0.0043002 0.0468688 0.0043002 0.0468688 0.9956998 -0.0468688
150 0.9954453 -0.0489698 0.0045547 0.0489698 0.0045547 0.0489698 0.9954453 -0.0489698
156 0.9951685 -0.0511641 0.0048315 0.0511641 0.0048315 0.0511641 0.9951685 -0.0511641
164 0.9948673 -0.0534554 0.0051327 0.0534554 0.0051327 0.0534554 0.9948673 -0.0534554
171 0.9945397 -0.0558476 0.0054603 0.0558476 0.0054603 0.0558476 0.9945397 -0.0558476
179 0.9941835 -0.0583447 0.0058165 0.0583447 0.0058165 0.0583447 0.9941835 -0.0583447
187 0.9937961 -0.0609508 0.0062039 0.0609508 0.0062039 0.0609508 0.9937961 -0.0609508
196 0.9933751 -0.0636703 0.0066249 0.0636703 0.0066249 0.0636703 0.9933751 -0.0636703
205 0.9929176 -0.0665075 0.0070824 0.0665075 0.0070824 0.0665075 0.9929176 -0.0665075
214 0.9924206 -0.0694670 0.0075794 0.0694670 0.0075794 0.0694670 0.9924206 -0.0694670
224 0.9918808 -0.0725534 0.0081192 0.0725534 0.0081192 0.0725534 0.9918808 -0.0725534
234 0.9912948 -0.0757715 0.0087052 0.0757715 0.0087052 0.0757715 0.9912948 -0.0757715
245 0.9906589 -0.0791261 0.0093411 0.0791261 0.0093411 0.0791261 0.9906589 -0.0791261
256 0.9899691 -0.0826224 0.0100309 0.0826224 0.0100309 0.0826224 0.9899691 -0.0826224
268 0.9892210 -0.0862654 0.0107790 0.0862654 0.0107790 0.0862654 0.9892210 -0.0862654
280 0.9884102 -0.0900604 0.0115898 0.0900604 0.0115898 0.0900604 0.9884102 -0.0900604
293 0.9875316 -0.0940128 0.0124684 0.0940128 0.0124684 0.0940128 0.9875316 -0.0940128
306 0.9865799 -0.0981281 0.0134201 0.0981281 0.0134201 0.0981281 0.9865799 -0.0981281
320 0.9855494 -0.1024120 0.0144506 0.1024120 0.0144506 0.1024120 0.9855494 -0.1024120
335 0.9844340 -0.1068701 0.0155660 0.1068701 0.0155660 0.1068701 0.9844340 -0.1068701
350 0.9832272 -0.1115083 0.0167728 0.1115083 0.0167728 0.1115083 0.9832272 -0.1115083
366 0.9819217 -0.1163324 0.0180783 0.1163324 0.0180783 0.1163324 0.9819217 -0.1163324
383 0.9805099 -0.1213484 0.0194901 0.1213484 0.0194901 0.1213484 0.9805099 -0.1213484
401 0.9789836 -0.1265624 0.0210164 0.1265624 0.0210164 0.1265624 0.9789836 -0.1265624
419 0.9773339 -0.1319803 0.0226661 0.1319803 0.0226661 0.1319803 0.9773339 -0.1319803
438 0.9755511 -0.1376081 0.0244489 0.1376081 0.0244489 0.1376081 0.9755511 -0.1376081
458 0.9736249 -0.1434517 0.0263751 0.1434517 0.0263751 0.1434517 0.9736249 -0.1434517
479 0.9715441 -0.1495169 0.0284559 0.1495169 0.0284559 0.1495169 0.9715441 -0.1495169
501 0.9692966 -0.1558094 0.0307034 0.1558094 0.0307034 0.1558094 0.9692966 -0.1558094
524 0.9668694 -0.1623344 0.0331306 0.1623344 0.0331306 0.1623344 0.9668694 -0.1623344
548 0.9642484 -0.1690969 0.0357516 0.1690969 0.0357516 0.1690969 0.9642484 -0.1690969
573 0.9614187 -0.1761015 0.0385813 0.1761015 0.0385813 0.1761015 0.9614187 -0.1761015
600 0.9583639 -0.1833522 0.0416361 0.1833522 0.0416361 0.1833522 0.9583639 -0.1833522
627 0.9550668 -0.1908520 0.0449332 0.1908520 0.0449332 0.1908520 0.9550668 -0.1908520
656 0.9515089 -0.1986035 0.0484911 0.1986035 0.0484911 0.1986035 0.9515089 -0.1986035
686 0.9476705 -0.2066081 0.0523295 0.2066081 0.0523295 0.2066081 0.9476705 -0.2066081
717 0.9435306 -0.2148658 0.0564694 0.2148658 0.0564694 0.2148658 0.9435306 -0.2148658
750 0.9390671 -0.2233754 0.0609329 0.2233754 0.0609329 0.2233754 0.9390671 -0.2233754
784 0.9342569 -0.2321342 0.0657431 0.2321342 0.0657431 0.2321342 0.9342569 -0.2321342
820 0.9290754 -0.2411375 0.0709246 0.2411375 0.0709246 0.2411375 0.9290754 -0.2411375
858 0.9234974 -0.2503786 0.0765026 0.2503786 0.0765026 0.2503786 0.9234974 -0.2503786
897 0.9174965 -0.2598486 0.0825035 0.2598486 0.0825035 0.2598486 0.9174965 -0.2598486
938 0.9110457 -0.2695360 0.0889543 0.2695360 0.0889543 0.2695360 0.9110457 -0.2695360
981 0.9041174 -0.2794265 0.0958826 0.2794265 0.0958826 0.2794265 0.9041174 -0.2794265
1026 0.8966837 -0.2895029 0.1033163 0.2895029 0.1033163 0.2895029 0.8966837 -0.2895029
1073 0.8887168 -0.2997447 0.1112832 0.2997447 0.1112832 0.2997447 0.8887168 -0.2997447
1122 0.8801888 -0.3101279 0.1198112 0.3101279 0.1198112 0.3101279 0.8801888 -0.3101279
1174 0.8710728 -0.3206249 0.1289272 0.3206249 0.1289272 0.3206249 0.8710728 -0.3206249
1227 0.8613430 -0.3312045 0.1386570 0.3312045 0.1386570 0.3312045 0.8613430 -0.3312045
1283 0.8509751 -0.3418313 0.1490249 0.3418313 0.1490249 0.3418313 0.8509751 -0.3418313
1342 0.8399466 -0.3524663 0.1600534 0.3524663 0.1600534 0.3524663 0.8399466 -0.3524663
1404 0.8282382 -0.3630664 0.1717618 0.3630664 0.1717618 0.3630664 0.8282382 -0.3630664
1468 0.8158334 -0.3735848 0.1841666 0.3735848 0.1841666 0.3735848 0.8158334 -0.3735848
1535 0.8027197 -0.3839711 0.1972803 0.3839711 0.1972803 0.3839711 0.8027197 -0.3839711
1606 0.7888890 -0.3941714 0.2111110 0.3941714 0.2111110 0.3941714 0.7888890 -0.3941714
1679 0.7743384 -0.4041291 0.2256616 0.4041291 0.2256616 0.4041291 0.7743384 -0.4041291
1756 0.7590705 -0.4137853 0.2409295 0.4137853 0.2409295 0.4137853 0.7590705 -0.4137853
1836 0.7430942 -0.4230791 0.2569058 0.4230791 0.2569058 0.4230791 0.7430942 -0.4230791
1920 0.7264248 -0.4319486 0.2735752 0.4319486 0.2735752 0.4319486 0.7264248 -0.4319486
2008 0.7090846 -0.4403319 0.2909154 0.4403319 0.2909154 0.4403319 0.7090846 -0.4403319
2100 0.6911033 -0.4481677 0.3088967 0.4481677 0.3088967 0.4481677 0.6911033 -0.4481677
2196 0.6725175 -0.4553963 0.3274825 0.4553963 0.3274825 0.4553963 0.6725175 -0.4553963
2297 0.6533712 -0.4619608 0.3466288 0.4619608 0.3466288 0.4619608 0.6533712 -0.4619608
2402 0.6337152 -0.4678081 0.3662848 0.4678081 0.3662848 0.4678081 0.6337152 -0.4678081
2512 0.6136070 -0.4728900 0.3863930 0.4728900 0.3863930 0.4728900 0.6136070 -0.4728900
2627 0.5931097 -0.4771636 0.4068903 0.4771636 0.4068903 0.4771636 0.5931097 -0.4771636
2748 0.5722917 -0.4805929 0.4277083 0.4805929 0.4277083 0.4805929 0.5722917 -0.4805929
2873 0.5512257 -0.4831492 0.4487743 0.4831492 0.4487743 0.4831492 0.5512257 -0.4831492
3005 0.5299873 -0.4848113 0.4700127 0.4848113 0.4700127 0.4848113 0.5299873 -0.4848113
3143 0.5086545 -0.4855667 0.4913455 0.4855667 0.4913455 0.4855667 0.5086545 -0.4855667
3287 0.4873060 -0.4854112 0.5126940 0.4854112 0.5126940 0.4854112 0.4873060 -0.4854112
3437 0.4660204 -0.4843488 0.5339796 0.4843488 0.5339796 0.4843488 0.4660204 -0.4843488
3594 0.4448748 -0.4823923 0.5551252 0.4823923 0.5551252 0.4823923 0.4448748 -0.4823923
3759 0.4239438 -0.4795619 0.5760562 0.4795619 0.5760562 0.4795619 0.4239438 -0.4795619
3931 0.4032983 -0.4758855 0.5967017 0.4758855 0.5967017 0.4758855 0.4032983 -0.4758855
4111 0.3830053 -0.4713977 0.6169947 0.4713977 0.6169947 0.4713977 0.3830053 -0.4713977
4299 0.3631261 -0.4661389 0.6368739 0.4661389 0.6368739 0.4661389 0.3631261 -0.4661389
4496 0.3437167 -0.4601546 0.6562833 0.4601546 0.6562833 0.4601546 0.3437167 -0.4601546
4702 0.3248269 -0.4534945 0.6751731 0.4534945 0.6751731 0.4534945 0.3248269 -0.4534945
4918 0.3065001 -0.4462117 0.6934999 0.4462117 0.6934999 0.4462117 0.3065001 -0.4462117
5143 0.2887729 -0.4383614 0.7112271 0.4383614 0.7112271 0.4383614 0.2887729 -0.4383614
5378 0.2716758 -0.4300005 0.7283242 0.4300005 0.7283242 0.4300005 0.2716758 -0.4300005
5625 0.2552327 -0.4211865 0.7447673 0.4211865 0.7447673 0.4211865 0.2552327 -0.4211865
5882 0.2394613 -0.4119767 0.7605387 0.4119767 0.7605387 0.4119767 0.2394613 -0.4119767
6151 0.2243737 -0.4024279 0.7756263 0.4024279 0.7756263 0.4024279 0.2243737 -0.4024279
6433 0.2099762 -0.3925953 0.7900238 0.3925953 0.7900238 0.3925953 0.2099762 -0.3925953
6728 0.1962704 -0.3825325 0.8037296 0.3825325 0.8037296 0.3825325 0.1962704 -0.3825325
7036 0.1832529 -0.3722908 0.8167471 0.3722908 0.8167471 0.3722908 0.1832529 -0.3722908
7358 0.1709165 -0.3619187 0.8290835 0.3619187 0.8290835 0.3619187 0.1709165 -0.3619187
7695 0.1592503 -0.3514623 0.8407497 0.3514623 0.8407497 0.3514623 0.1592503 -0.3514623
8047 0.1482401 -0.3409643 0.8517599 0.3409643 0.8517599 0.3409643 0.1482401 -0.3409643
8416 0.1378689 -0.3304644 0.8621311 0.3304644 0.8621311 0.3304644 0.1378689 -0.3304644
8801 0.1281177 -0.3199990 0.8718823 0.3199990 0.8718823 0.3199990 0.1281177 -0.3199990
9204 0.1189654 -0.3096014 0.8810346 0.3096014 0.8810346 0.3096014 0.1189654 -0.3096014
9626 0.1103894 -0.2993016 0.8896106 0.2993016 0.8896106 0.2993016 0.1103894 -0.2993016
10066 0.1023661 -0.2891265 0.8976339 0.2891265 0.8976339 0.2891265 0.1023661 -0.2891265
10527 0.0948710 -0.2790999 0.9051290 0.2790999 0.9051290 0.2790999 0.0948710 -0.2790999
11009 0.0878793 -0.2692426 0.9121207 0.2692426 0.9121207 0.2692426 0.0878793 -0.2692426
11514 0.0813656 -0.2595727 0.9186344 0.2595727 0.9186344 0.2595727 0.0813656 -0.2595727
12041 0.0753050 -0.2501056 0.9246950 0.2501056 0.9246950 0.2501056 0.0753050 -0.2501056
12592 0.0696723 -0.2408542 0.9303277 0.2408542 0.9303277 0.2408542 0.0696723 -0.2408542
13169 0.0644430 -0.2318292 0.9355570 0.2318292 0.9355570 0.2318292 0.0644430 -0.2318292
13772 0.0595931 -0.2230390 0.9404069 0.2230390 0.9404069 0.2230390 0.0595931 -0.2230390
14402 0.0550993 -0.2144901 0.9449007 0.2144901 0.9449007 0.2144901 0.0550993 -0.2144901
15062 0.0509390 -0.2061873 0.9490610 0.2061873 0.9490610 0.2061873 0.0509390 -0.2061873
15752 0.0470903 -0.1981337 0.9529097 0.1981337 0.9529097 0.1981337 0.0470903 -0.1981337
16473 0.0435324 -0.1903309 0.9564676 0.1903309 0.9564676 0.1903309 0.0435324 -0.1903309
17227 0.0402454 -0.1827792 0.9597546 0.1827792 0.9597546 0.1827792 0.0402454 -0.1827792
18016 0.0372104 -0.1754780 0.9627896 0.1754780 0.9627896 0.1754780 0.0372104 -0.1754780
18841 0.0344094 -0.1684253 0.9655906 0.1684253 0.9655906 0.1684253 0.0344094 -0.1684253
19704 0.0318253 -0.1616184 0.9681747 0.1616184 0.9681747 0.1616184 0.0318253 -0.1616184
20606 0.0294421 -0.1550540 0.9705579 0.1550540 0.9705579 0.1550540 0.0294421 -0.1550540
21550 0.0272449 -0.1487279 0.9727551 0.1487279 0.9727551 0.1487279 0.0272449 -0.1487279
22537 0.0252193 -0.1426354 0.9747807 0.1426354 0.9747807 0.1426354 0.0252193 -0.1426354
23569 0.0233523 -0.1367715 0.9766477 0.1367715 0.9766477 0.1367715 0.0233523 -0.1367715
24648 0.0216313 -0.1311306 0.9783687 0.1311306 0.9783687 0.1311306 0.0216313 -0.1311306
25777 0.0200450 -0.1257070 0.9799550 0.1257070 0.9799550 0.1257070 0.0200450 -0.1257070
26957 0.0185826 -0.1204946 0.9814174 0.1204946 0.9814174 0.1204946 0.0185826 -0.1204946
28191 0.0172341 -0.1154872 0.9827659 0.1154872 0.9827659 0.1154872 0.0172341 -0.1154872
29482 0.0159903 -0.1106786 0.9840097 0.1106786 0.9840097 0.1106786 0.0159903 -0.1106786
30832 0.0148426 -0.1060622 0.9851574 0.1060622 0.9851574 0.1060622 0.0148426 -0.1060622
32244 0.0137833 -0.1016317 0.9862167 0.1016317 0.9862167 0.1016317 0.0137833 -0.1016317
33721 0.0128050 -0.0973806 0.9871950 0.0973806 0.9871950 0.0973806 0.0128050 -0.0973806
35265 0.0119011 -0.0933025 0.9880989 0.0933025 0.9880989 0.0933025 0.0119011 -0.0933025
36880 0.0110653 -0.0893912 0.9889347 0.0893912 0.9889347 0.0893912 0.0110653 -0.0893912
38569 0.0102922 -0.0856403 0.9897078 0.0856403 0.9897078 0.0856403 0.0102922 -0.0856403
40335 0.0095764 -0.0820438 0.9904236 0.0820438 0.9904236 0.0820438 0.0095764 -0.0820438
42182 0.0089134 -0.0785955 0.9910866 0.0785955 0.9910866 0.0785955 0.0089134 -0.0785955
44113 0.0082989 -0.0752898 0.9917011 0.0752898 0.9917011 0.0752898 0.0082989 -0.0752898
46134 0.0077288 -0.0721208 0.9922712 0.0721208 0.9922712 0.0721208 0.0077288 -0.0721208
48246 0.0071998 -0.0690831 0.9928002 0.0690831 0.9928002 0.0690831 0.0071998 -0.0690831
50455 0.0067084 -0.0661712 0.9932916 0.0661712 0.9932916 0.0661712 0.0067084 -0.0661712
52766 0.0062519 -0.0633801 0.9937481 0.0633801 0.9937481 0.0633801 0.0062519 -0.0633801
55182 0.0058274 -0.0607047 0.9941726 0.0607047 0.9941726 0.0607047 0.0058274 -0.0607047
57709 0.0054327 -0.0581402 0.9945673 0.0581402 0.9945673 0.0581402 0.0054327 -0.0581402
60352 0.0050656 -0.0556820 0.9949344 0.0556820 0.9949344 0.0556820 0.0050656 -0.0556820
63115 0.0047239 -0.0533258 0.9952761 0.0533258 0.9952761 0.0533258 0.0047239 -0.0533258
66005 0.0044059 -0.0510673 0.9955941 0.0510673 0.9955941 0.0510673 0.0044059 -0.0510673
69028 0.0041100 -0.0489024 0.9958900 0.0489024 0.9958900 0.0489024 0.0041100 -0.0489024
72189 0.0038346 -0.0468273 0.9961654 0.0468273 0.9961654 0.0468273 0.0038346 -0.0468273
75495 0.0035784 -0.0448383 0.9964216 0.0448383 0.9964216 0.0448383 0.0035784 -0.0448383
78952 0.0033400 -0.0429319 0.9966600 0.0429319 0.9966600 0.0429319 0.0033400 -0.0429319
82567 0.0031182 -0.0411046 0.9968818 0.0411046 0.9968818 0.0411046 0.0031182 -0.0411046
86348 0.0029121 -0.0393533 0.9970879 0.0393533 0.9970879 0.0393533 0.0029121 -0.0393533
90302 0.0027205 -0.0376749 0.9972795 0.0376749 0.9972795 0.0376749 0.0027205 -0.0376749
94437 0.0025425 -0.0360665 0.9974575 0.0360665 0.9974575 0.0360665 0.0025425 -0.0360665
98762 0.0023773 -0.0345252 0.9976227 0.0345252 0.9976227 0.0345252 0.0023773 -0.0345252
103284 0.0022239 -0.0330483 0.9977761 0.0330483 0.9977761 0.0330483 0.0022239 -0.0330483
108014 0.0020817 -0.0316333 0.9979183 0.0316333 0.9979183 0.0316333 0.0020817 -0.0316333
112960 0.0019498 -0.0302776 0.9980502 0.0302776 0.9980502 0.0302776 0.0019498 -0.0302776
118133 0.0018276 -0.0289789 0.9981724 0.0289789 0.9981724 0.0289789 0.0018276 -0.0289789
123542 0.0017144 -0.0277350 0.9982856 0.0277350 0.9982856 0.0277350 0.0017144 -0.0277350
129199 0.0016097 -0.0265435 0.9983903 0.0265435 0.9983903 0.0265435 0.0016097 -0.0265435
135116 0.0015127 -0.0254025 0.9984873 0.0254025 0.9984873 0.0254025 0.0015127 -0.0254025
141303 0.0014230 -0.0243098 0.9985770 0.0243098 0.9985770 0.0243098 0.0014230 -0.0243098
147774 0.0013401 -0.0232635 0.9986599 0.0232635 0.9986599 0.0232635 0.0013401 -0.0232635
154540 0.0012635 -0.0222619 0.9987365 0.0222619 0.9987365 0.0222619 0.0012635 -0.0222619
161617 0.0011926 -0.0213029 0.9988074 0.0213029 0.9988074 0.0213029 0.0011926 -0.0213029
169018 0.0011271 -0.0203850 0.9988729 0.0203850 0.9988729 0.0203850 0.0011271 -0.0203850
176758 0.0010666 -0.0195063 0.9989334 0.0195063 0.9989334 0.0195063 0.0010666 -0.0195063
184852 0.0010106 -0.0186655 0.9989894 0.0186655 0.9989894 0.0186655 0.0010106 -0.0186655
193316 0.0009589 -0.0178607 0.9990411 0.0178607 0.9990411 0.0178607 0.0009589 -0.0178607
202169 0.0009110 -0.0170907 0.9990890 0.0170907 0.9990890 0.0170907 0.0009110 -0.0170907
211427 0.0008667 -0.0163539 0.9991333 0.0163539 0.9991333 0.0163539 0.0008667 -0.0163539
221108 0.0008257 -0.0156489 0.9991743 0.0156489 0.9991743 0.0156489 0.0008257 -0.0156489
231233 0.0007876 -0.0149745 0.9992124 0.0149745 0.9992124 0.0149745 0.0007876 -0.0149745
241822 0.0007524 -0.0143293 0.9992476 0.0143293 0.9992476 0.0143293 0.0007524 -0.0143293
252896 0.0007196 -0.0137121 0.9992804 0.0137121 0.9992804 0.0137121 0.0007196 -0.0137121
264476 0.0006891 -0.0131217 0.9993109 0.0131217 0.9993109 0.0131217 0.0006891 -0.0131217
276587 0.0006606 -0.0125570 0.9993394 0.0125570 0.9993394 0.0125570 0.0006606 -0.0125570
289253 0.0006341 -0.0120169 0.9993659 0.0120169 0.9993659 0.0120169 0.0006341 -0.0120169
302498 0.0006092 -0.0115003 0.9993908 0.0115003 0.9993908 0.0115003 0.0006092 -0.0115003
316350 0.0005859 -0.0110062 0.9994141 0.0110062 0.9994141 0.0110062 0.0005859 -0.0110062
330837 0.0005640 -0.0105337 0.9994360 0.0105337 0.9994360 0.0105337 0.0005640 -0.0105337
345986 0.0005433 -0.0100817 0.9994567 0.0100817 0.9994567 0.0100817 0.0005433 -0.0100817
361830 0.0005238 -0.0096495 0.9994762 0.0096495 0.9994762 0.0096495 0.0005238 -0.0096495
378399 0.0005053 -0.0092360 0.9994947 0.0092360 0.9994947 0.0092360 0.0005053 -0.0092360
395726 0.0004877 -0.0088406 0.9995123 0.0088406 0.9995123 0.0088406 0.0004877 -0.0088406
413847 0.0004709 -0.0084623 0.9995291 0.0084623 0.9995291 0.0084623 0.0004709 -0.0084623
432798 0.0004549 -0.0081005 0.9995451 0.0081005 0.9995451 0.0081005 0.0004549 -0.0081005
452617 0.0004395 -0.0077543 0.9995605 0.0077543 0.9995605 0.0077543 0.0004395 -0.0077543
473344 0.0004247 -0.0074232 0.9995753 0.0074232 0.9995753 0.0074232 0.0004247 -0.0074232
495019 0.0004105 -0.0071063 0.9995895 0.0071063 0.9995895 0.0071063 0.0004105 -0.0071063
517687 0.0003968 -0.0068031 0.9996032 0.0068031 0.9996032 0.0068031 0.0003968 -0.0068031
541393 0.0003835 -0.0065129 0.9996165 0.0065129 0.9996165 0.0065129 0.0003835 -0.0065129
566185 0.0003706 -0.0062351 0.9996294 0.0062351 0.9996294 0.0062351 0.0003706 -0.0062351
592111 0.0003582 -0.0059692 0.9996418 0.0059692 0.9996418 0.0059692 0.0003582 -0.0059692
619225 0.0003461 -0.0057146 0.9996539 0.0057146 0.9996539 0.0057146 0.0003461 -0.0057146
647581 0.0003343 -0.0054708 0.9996657 0.0054708 0.9996657 0.0054708 0.0003343 -0.0054708
677235 0.0003230 -0.0052373 0.9996770 0.0052373 0.9996770 0.0052373 0.0003230 -0.0052373
708247 0.0003119 -0.0050137 0.9996881 0.0050137 0.9996881 0.0050137 0.0003119 -0.0050137
740679 0.0003012 -0.0047995 0.9996988 0.0047995 0.9996988 0.0047995 0.0003012 -0.0047995
774597 0.0002909 -0.0045942 0.9997091 0.0045942 0.9997091 0.0045942 0.0002909 -0.0045942
810067 0.0002808 -0.0043975 0.9997192 0.0043975 0.9997192 0.0043975 0.0002808 -0.0043975
847162 0.0002712 -0.0042090 0.9997288 0.0042090 0.9997288 0.0042090 0.0002712 -0.0042090
885955 0.0002619 -0.0040283 0.9997381 0.0040283 0.9997381 0.0040283 0.0002619 -0.0040283
926525 0.0002529 -0.0038550 0.9997471 0.0038550 0.9997471 0.0038550 0.0002529 -0.0038550
968953 0.0002443 -0.0036890 0.9997557 0.0036890 0.9997557 0.0036890 0.0002443 -0.0036890
1013323 0.0002360 -0.0035297 0.9997640 0.0035297 0.9997640 0.0035297 0.0002360 -0.0035297
1059725 0.0002281 -0.0033770 0.9997719 0.0033770 0.9997719 0.0033770 0.0002281 -0.0033770
1108252 0.0002206 -0.0032306 0.9997794 0.0032306 0.9997794 0.0032306 0.0002206 -0.0032306
1159002 0.0002134 -0.0030902 0.9997866 0.0030902 0.9997866 0.0030902 0.0002134 -0.0030902
1212075 0.0002066 -0.0029555 0.9997934 0.0029555 0.9997934 0.0029555 0.0002066 -0.0029555
1267578 0.0002001 -0.0028263 0.9997999 0.0028263 0.9997999 0.0028263 0.0002001 -0.0028263
1325623 0.0001940 -0.0027024 0.9998060 0.0027024 0.9998060 0.0027024 0.0001940 -0.0027024
1386327 0.0001883 -0.0025835 0.9998117 0.0025835 0.9998117 0.0025835 0.0001883 -0.0025835
1449809 0.0001828 -0.0024695 0.9998172 0.0024695 0.9998172 0.0024695 0.0001828 -0.0024695
1516199 0.0001777 -0.0023601 0.9998223 0.0023601 0.9998223 0.0023601 0.0001777 -0.0023601
1585629 0.0001729 -0.0022552 0.9998271 0.0022552 0.9998271 0.0022552 0.0001729 -0.0022552
1658239 0.0001685 -0.0021545 0.9998315 0.0021545 0.9998315 0.0021545 0.0001685 -0.0021545
1734173 0.0001643 -0.0020579 0.9998357 0.0020579 0.9998357 0.0020579 0.0001643 -0.0020579
1813585 0.0001604 -0.0019652 0.9998396 0.0019652 0.9998396 0.0019652 0.0001604 -0.0019652
1896632 0.0001568 -0.0018762 0.9998432 0.0018762 0.9998432 0.0018762 0.0001568 -0.0018762
1983483 0.0001534 -0.0017909 0.9998466 0.0017909 0.9998466 0.0017909 0.0001534 -0.0017909
2074311 0.0001503 -0.0017089 0.9998497 0.0017089 0.9998497 0.0017089 0.0001503 -0.0017089
2169299 0.0001474 -0.0016303 0.9998526 0.0016303 0.9998526 0.0016303 0.0001474 -0.0016303
