!Murata Part Number: GRM155C70J225KE11
!These Parameters are Measured in Series Mode Connection
!       o--ll--o
!Port1            Port2
!       o------o
!Operation Temp=25[C], DC Bias Voltage=0[V]
!Freq. Start=100[Hz] Stop=6000000000[Hz] 401[Steps]
# Hz S RI R 50
!Freq.(Hz) S11(Real) S11(Imag) S21(Real) S21(Imag) S12(Real) S12(Imag) S22(Real) S22(Imag)
100 0.9873778 -0.1058148 0.0126222 0.1058148 0.0126222 0.1058148 0.9873778 -0.1058148
105 0.9862744 -0.1104925 0.0137256 0.1104925 0.0137256 0.1104925 0.9862744 -0.1104925
109 0.9850735 -0.1153652 0.0149265 0.1153652 0.0149265 0.1153652 0.9850735 -0.1153652
114 0.9837668 -0.1204393 0.0162332 0.1204393 0.0162332 0.1204393 0.9837668 -0.1204393
120 0.9823452 -0.1257211 0.0176548 0.1257211 0.0176548 0.1257211 0.9823452 -0.1257211
125 0.9807989 -0.1312169 0.0192011 0.1312169 0.0192011 0.1312169 0.9807989 -0.1312169
131 0.9791173 -0.1369328 0.0208827 0.1369328 0.0208827 0.1369328 0.9791173 -0.1369328
137 0.9772890 -0.1428747 0.0227110 0.1428747 0.0227110 0.1428747 0.9772890 -0.1428747
143 0.9753021 -0.1490484 0.0246979 0.1490484 0.0246979 0.1490484 0.9753021 -0.1490484
150 0.9731433 -0.1554592 0.0268567 0.1554592 0.0268567 0.1554592 0.9731433 -0.1554592
156 0.9707988 -0.1621122 0.0292012 0.1621122 0.0292012 0.1621122 0.9707988 -0.1621122
164 0.9682536 -0.1690119 0.0317464 0.1690119 0.0317464 0.1690119 0.9682536 -0.1690119
171 0.9654920 -0.1761624 0.0345080 0.1761624 0.0345080 0.1761624 0.9654920 -0.1761624
179 0.9624969 -0.1835669 0.0375031 0.1835669 0.0375031 0.1835669 0.9624969 -0.1835669
187 0.9592505 -0.1912281 0.0407495 0.1912281 0.0407495 0.1912281 0.9592505 -0.1912281
196 0.9557337 -0.1991476 0.0442663 0.1991476 0.0442663 0.1991476 0.9557337 -0.1991476
205 0.9519265 -0.2073259 0.0480735 0.2073259 0.0480735 0.2073259 0.9519265 -0.2073259
214 0.9478075 -0.2157626 0.0521925 0.2157626 0.0521925 0.2157626 0.9478075 -0.2157626
224 0.9433546 -0.2244556 0.0566454 0.2244556 0.0566454 0.2244556 0.9433546 -0.2244556
234 0.9385444 -0.2334014 0.0614556 0.2334014 0.0614556 0.2334014 0.9385444 -0.2334014
245 0.9333527 -0.2425948 0.0666473 0.2425948 0.0666473 0.2425948 0.9333527 -0.2425948
256 0.9277540 -0.2520284 0.0722460 0.2520284 0.0722460 0.2520284 0.9277540 -0.2520284
268 0.9217224 -0.2616929 0.0782776 0.2616929 0.0782776 0.2616929 0.9217224 -0.2616929
280 0.9152309 -0.2715764 0.0847691 0.2715764 0.0847691 0.2715764 0.9152309 -0.2715764
293 0.9082521 -0.2816645 0.0917479 0.2816645 0.0917479 0.2816645 0.9082521 -0.2816645
306 0.9007585 -0.2919396 0.0992415 0.2919396 0.0992415 0.2919396 0.9007585 -0.2919396
320 0.8927220 -0.3023815 0.1072780 0.3023815 0.1072780 0.3023815 0.8927220 -0.3023815
335 0.8841150 -0.3129661 0.1158850 0.3129661 0.1158850 0.3129661 0.8841150 -0.3129661
350 0.8749104 -0.3236660 0.1250896 0.3236660 0.1250896 0.3236660 0.8749104 -0.3236660
366 0.8650821 -0.3344502 0.1349179 0.3344502 0.1349179 0.3344502 0.8650821 -0.3344502
383 0.8546052 -0.3452835 0.1453948 0.3452835 0.1453948 0.3452835 0.8546052 -0.3452835
401 0.8434568 -0.3561270 0.1565432 0.3561270 0.1565432 0.3561270 0.8434568 -0.3561270
419 0.8316166 -0.3669378 0.1683834 0.3669378 0.1683834 0.3669378 0.8316166 -0.3669378
438 0.8190670 -0.3776688 0.1809330 0.3776688 0.1809330 0.3776688 0.8190670 -0.3776688
458 0.8057945 -0.3882694 0.1942055 0.3882694 0.1942055 0.3882694 0.8057945 -0.3882694
479 0.7917895 -0.3986853 0.2082105 0.3986853 0.2082105 0.3986853 0.7917895 -0.3986853
501 0.7770476 -0.4088589 0.2229524 0.4088589 0.2229524 0.4088589 0.7770476 -0.4088589
524 0.7615700 -0.4187302 0.2384300 0.4187302 0.2384300 0.4187302 0.7615700 -0.4187302
548 0.7453641 -0.4282367 0.2546359 0.4282367 0.2546359 0.4282367 0.7453641 -0.4282367
573 0.7284438 -0.4373147 0.2715562 0.4373147 0.2715562 0.4373147 0.7284438 -0.4373147
600 0.7108303 -0.4458996 0.2891697 0.4458996 0.2891697 0.4458996 0.7108303 -0.4458996
627 0.6925524 -0.4539275 0.3074476 0.4539275 0.3074476 0.4539275 0.6925524 -0.4539275
656 0.6736462 -0.4613356 0.3263538 0.4613356 0.3263538 0.4613356 0.6736462 -0.4613356
686 0.6541557 -0.4680636 0.3458443 0.4680636 0.3458443 0.4680636 0.6541557 -0.4680636
717 0.6341323 -0.4740548 0.3658677 0.4740548 0.3658677 0.4740548 0.6341323 -0.4740548
750 0.6136345 -0.4792569 0.3863655 0.4792569 0.3863655 0.4792569 0.6136345 -0.4792569
784 0.5927274 -0.4836236 0.4072726 0.4836236 0.4072726 0.4836236 0.5927274 -0.4836236
820 0.5714821 -0.4871151 0.4285179 0.4871151 0.4285179 0.4871151 0.5714821 -0.4871151
858 0.5499742 -0.4896994 0.4500258 0.4896994 0.4500258 0.4896994 0.5499742 -0.4896994
897 0.5282836 -0.4913526 0.4717164 0.4913526 0.4717164 0.4913526 0.5282836 -0.4913526
938 0.5064926 -0.4920596 0.4935074 0.4920596 0.4935074 0.4920596 0.5064926 -0.4920596
981 0.4846850 -0.4918146 0.5153150 0.4918146 0.5153150 0.4918146 0.4846850 -0.4918146
1026 0.4629446 -0.4906209 0.5370554 0.4906209 0.5370554 0.4906209 0.4629446 -0.4906209
1073 0.4413540 -0.4884912 0.5586460 0.4884912 0.5586460 0.4884912 0.4413540 -0.4884912
1122 0.4199935 -0.4854468 0.5800065 0.4854468 0.5800065 0.4854468 0.4199935 -0.4854468
1174 0.3989394 -0.4815173 0.6010606 0.4815173 0.6010606 0.4815173 0.3989394 -0.4815173
1227 0.3782636 -0.4767399 0.6217364 0.4767399 0.6217364 0.4767399 0.3782636 -0.4767399
1283 0.3580321 -0.4711586 0.6419679 0.4711586 0.6419679 0.4711586 0.3580321 -0.4711586
1342 0.3383050 -0.4648231 0.6616950 0.4648231 0.6616950 0.4648231 0.3383050 -0.4648231
1404 0.3191351 -0.4577879 0.6808649 0.4577879 0.6808649 0.4577879 0.3191351 -0.4577879
1468 0.3005683 -0.4501111 0.6994317 0.4501111 0.6994317 0.4501111 0.3005683 -0.4501111
1535 0.2826429 -0.4418533 0.7173571 0.4418533 0.7173571 0.4418533 0.2826429 -0.4418533
1606 0.2653899 -0.4330767 0.7346101 0.4330767 0.7346101 0.4330767 0.2653899 -0.4330767
1679 0.2488332 -0.4238443 0.7511668 0.4238443 0.7511668 0.4238443 0.2488332 -0.4238443
1756 0.2329895 -0.4142186 0.7670105 0.4142186 0.7670105 0.4142186 0.2329895 -0.4142186
1836 0.2178692 -0.4042610 0.7821308 0.4042610 0.7821308 0.4042610 0.2178692 -0.4042610
1920 0.2034764 -0.3940311 0.7965236 0.3940311 0.7965236 0.3940311 0.2034764 -0.3940311
2008 0.1898097 -0.3835863 0.8101903 0.3835863 0.8101903 0.3835863 0.1898097 -0.3835863
2100 0.1768629 -0.3729809 0.8231371 0.3729809 0.8231371 0.3729809 0.1768629 -0.3729809
2196 0.1646251 -0.3622664 0.8353749 0.3622664 0.8353749 0.3622664 0.1646251 -0.3622664
2297 0.1530818 -0.3514904 0.8469182 0.3514904 0.8469182 0.3514904 0.1530818 -0.3514904
2402 0.1422152 -0.3406972 0.8577848 0.3406972 0.8577848 0.3406972 0.1422152 -0.3406972
2512 0.1320048 -0.3299273 0.8679952 0.3299273 0.8679952 0.3299273 0.1320048 -0.3299273
2627 0.1224280 -0.3192176 0.8775720 0.3192176 0.8775720 0.3192176 0.1224280 -0.3192176
2748 0.1134604 -0.3086010 0.8865396 0.3086010 0.8865396 0.3086010 0.1134604 -0.3086010
2873 0.1050765 -0.2981071 0.8949235 0.2981071 0.8949235 0.2981071 0.1050765 -0.2981071
3005 0.0972499 -0.2877620 0.9027501 0.2877620 0.9027501 0.2877620 0.0972499 -0.2877620
3143 0.0899535 -0.2775882 0.9100465 0.2775882 0.9100465 0.2775882 0.0899535 -0.2775882
3287 0.0831602 -0.2676055 0.9168398 0.2676055 0.9168398 0.2676055 0.0831602 -0.2676055
3437 0.0768430 -0.2578303 0.9231570 0.2578303 0.9231570 0.2578303 0.0768430 -0.2578303
3594 0.0709751 -0.2482767 0.9290249 0.2482767 0.9290249 0.2482767 0.0709751 -0.2482767
3759 0.0655302 -0.2389558 0.9344698 0.2389558 0.9344698 0.2389558 0.0655302 -0.2389558
3931 0.0604828 -0.2298766 0.9395172 0.2298766 0.9395172 0.2298766 0.0604828 -0.2298766
4111 0.0558078 -0.2210462 0.9441922 0.2210462 0.9441922 0.2210462 0.0558078 -0.2210462
4299 0.0514815 -0.2124693 0.9485185 0.2124693 0.9485185 0.2124693 0.0514815 -0.2124693
4496 0.0474807 -0.2041493 0.9525193 0.2041493 0.9525193 0.2041493 0.0474807 -0.2041493
4702 0.0437834 -0.1960879 0.9562166 0.1960879 0.9562166 0.1960879 0.0437834 -0.1960879
4918 0.0403688 -0.1882852 0.9596312 0.1882852 0.9596312 0.1882852 0.0403688 -0.1882852
5143 0.0372168 -0.1807405 0.9627832 0.1807405 0.9627832 0.1807405 0.0372168 -0.1807405
5378 0.0343088 -0.1734517 0.9656912 0.1734517 0.9656912 0.1734517 0.0343088 -0.1734517
5625 0.0316269 -0.1664160 0.9683731 0.1664160 0.9683731 0.1664160 0.0316269 -0.1664160
5882 0.0291544 -0.1596297 0.9708456 0.1596297 0.9708456 0.1596297 0.0291544 -0.1596297
6151 0.0268758 -0.1530886 0.9731242 0.1530886 0.9731242 0.1530886 0.0268758 -0.1530886
6433 0.0247763 -0.1467877 0.9752237 0.1467877 0.9752237 0.1467877 0.0247763 -0.1467877
6728 0.0228423 -0.1407217 0.9771577 0.1407217 0.9771577 0.1407217 0.0228423 -0.1407217
7036 0.0210611 -0.1348850 0.9789389 0.1348850 0.9789389 0.1348850 0.0210611 -0.1348850
7358 0.0194207 -0.1292715 0.9805793 0.1292715 0.9805793 0.1292715 0.0194207 -0.1292715
7695 0.0179101 -0.1238750 0.9820899 0.1238750 0.9820899 0.1238750 0.0179101 -0.1238750
8047 0.0165193 -0.1186892 0.9834807 0.1186892 0.9834807 0.1186892 0.0165193 -0.1186892
8416 0.0152387 -0.1137077 0.9847613 0.1137077 0.9847613 0.1137077 0.0152387 -0.1137077
8801 0.0140595 -0.1089238 0.9859405 0.1089238 0.9859405 0.1089238 0.0140595 -0.1089238
9204 0.0129738 -0.1043312 0.9870262 0.1043312 0.9870262 0.1043312 0.0129738 -0.1043312
9626 0.0119742 -0.0999234 0.9880258 0.0999234 0.9880258 0.0999234 0.0119742 -0.0999234
10066 0.0110537 -0.0956938 0.9889463 0.0956938 0.9889463 0.0956938 0.0110537 -0.0956938
10527 0.0102061 -0.0916363 0.9897939 0.0916363 0.9897939 0.0916363 0.0102061 -0.0916363
11009 0.0094256 -0.0877445 0.9905744 0.0877445 0.9905744 0.0877445 0.0094256 -0.0877445
11514 0.0087068 -0.0840124 0.9912932 0.0840124 0.9912932 0.0840124 0.0087068 -0.0840124
12041 0.0080449 -0.0804341 0.9919551 0.0804341 0.9919551 0.0804341 0.0080449 -0.0804341
12592 0.0074354 -0.0770037 0.9925646 0.0770037 0.9925646 0.0770037 0.0074354 -0.0770037
13169 0.0068741 -0.0737156 0.9931259 0.0737156 0.9931259 0.0737156 0.0068741 -0.0737156
13772 0.0063571 -0.0705643 0.9936429 0.0705643 0.9936429 0.0705643 0.0063571 -0.0705643
14402 0.0058811 -0.0675445 0.9941189 0.0675445 0.9941189 0.0675445 0.0058811 -0.0675445
15062 0.0054427 -0.0646511 0.9945573 0.0646511 0.9945573 0.0646511 0.0054427 -0.0646511
15752 0.0050391 -0.0618791 0.9949609 0.0618791 0.9949609 0.0618791 0.0050391 -0.0618791
16473 0.0046673 -0.0592237 0.9953327 0.0592237 0.9953327 0.0592237 0.0046673 -0.0592237
17227 0.0043250 -0.0566803 0.9956750 0.0566803 0.9956750 0.0566803 0.0043250 -0.0566803
18016 0.0040098 -0.0542444 0.9959902 0.0542444 0.9959902 0.0542444 0.0040098 -0.0542444
18841 0.0037196 -0.0519116 0.9962804 0.0519116 0.9962804 0.0519116 0.0037196 -0.0519116
19704 0.0034523 -0.0496779 0.9965477 0.0496779 0.9965477 0.0496779 0.0034523 -0.0496779
20606 0.0032062 -0.0475392 0.9967938 0.0475392 0.9967938 0.0475392 0.0032062 -0.0475392
21550 0.0029795 -0.0454916 0.9970205 0.0454916 0.9970205 0.0454916 0.0029795 -0.0454916
22537 0.0027706 -0.0435315 0.9972294 0.0435315 0.9972294 0.0435315 0.0027706 -0.0435315
23569 0.0025782 -0.0416552 0.9974218 0.0416552 0.9974218 0.0416552 0.0025782 -0.0416552
24648 0.0024009 -0.0398592 0.9975991 0.0398592 0.9975991 0.0398592 0.0024009 -0.0398592
25777 0.0022374 -0.0381403 0.9977626 0.0381403 0.9977626 0.0381403 0.0022374 -0.0381403
26957 0.0020867 -0.0364953 0.9979133 0.0364953 0.9979133 0.0364953 0.0020867 -0.0364953
28191 0.0019476 -0.0349210 0.9980524 0.0349210 0.9980524 0.0349210 0.0019476 -0.0349210
29482 0.0018193 -0.0334145 0.9981807 0.0334145 0.9981807 0.0334145 0.0018193 -0.0334145
30832 0.0017007 -0.0319730 0.9982993 0.0319730 0.9982993 0.0319730 0.0017007 -0.0319730
32244 0.0015911 -0.0305937 0.9984089 0.0305937 0.9984089 0.0305937 0.0015911 -0.0305937
33721 0.0014898 -0.0292740 0.9985102 0.0292740 0.9985102 0.0292740 0.0014898 -0.0292740
35265 0.0013960 -0.0280112 0.9986040 0.0280112 0.9986040 0.0280112 0.0013960 -0.0280112
36880 0.0013091 -0.0268031 0.9986909 0.0268031 0.9986909 0.0268031 0.0013091 -0.0268031
38569 0.0012285 -0.0256472 0.9987715 0.0256472 0.9987715 0.0256472 0.0012285 -0.0256472
40335 0.0011536 -0.0245412 0.9988464 0.0245412 0.9988464 0.0245412 0.0011536 -0.0245412
42182 0.0010841 -0.0234831 0.9989159 0.0234831 0.9989159 0.0234831 0.0010841 -0.0234831
44113 0.0010195 -0.0224708 0.9989805 0.0224708 0.9989805 0.0224708 0.0010195 -0.0224708
46134 0.0009592 -0.0215022 0.9990408 0.0215022 0.9990408 0.0215022 0.0009592 -0.0215022
48246 0.0009031 -0.0205754 0.9990969 0.0205754 0.9990969 0.0205754 0.0009031 -0.0205754
50455 0.0008507 -0.0196887 0.9991493 0.0196887 0.9991493 0.0196887 0.0008507 -0.0196887
52766 0.0008018 -0.0188402 0.9991982 0.0188402 0.9991982 0.0188402 0.0008018 -0.0188402
55182 0.0007561 -0.0180283 0.9992439 0.0180283 0.9992439 0.0180283 0.0007561 -0.0180283
57709 0.0007134 -0.0172515 0.9992866 0.0172515 0.9992866 0.0172515 0.0007134 -0.0172515
60352 0.0006733 -0.0165081 0.9993267 0.0165081 0.9993267 0.0165081 0.0006733 -0.0165081
63115 0.0006358 -0.0157967 0.9993642 0.0157967 0.9993642 0.0157967 0.0006358 -0.0157967
66005 0.0006007 -0.0151159 0.9993993 0.0151159 0.9993993 0.0151159 0.0006007 -0.0151159
69028 0.0005678 -0.0144643 0.9994322 0.0144643 0.9994322 0.0144643 0.0005678 -0.0144643
72189 0.0005369 -0.0138408 0.9994631 0.0138408 0.9994631 0.0138408 0.0005369 -0.0138408
75495 0.0005079 -0.0132440 0.9994921 0.0132440 0.9994921 0.0132440 0.0005079 -0.0132440
78952 0.0004808 -0.0126728 0.9995192 0.0126728 0.9995192 0.0126728 0.0004808 -0.0126728
82567 0.0004553 -0.0121262 0.9995447 0.0121262 0.9995447 0.0121262 0.0004553 -0.0121262
86348 0.0004315 -0.0116030 0.9995685 0.0116030 0.9995685 0.0116030 0.0004315 -0.0116030
90302 0.0004091 -0.0111023 0.9995909 0.0111023 0.9995909 0.0111023 0.0004091 -0.0111023
94437 0.0003882 -0.0106230 0.9996118 0.0106230 0.9996118 0.0106230 0.0003882 -0.0106230
98762 0.0003685 -0.0101643 0.9996315 0.0101643 0.9996315 0.0101643 0.0003685 -0.0101643
103284 0.0003502 -0.0097253 0.9996498 0.0097253 0.9996498 0.0097253 0.0003502 -0.0097253
108014 0.0003330 -0.0093052 0.9996670 0.0093052 0.9996670 0.0093052 0.0003330 -0.0093052
112960 0.0003169 -0.0089031 0.9996831 0.0089031 0.9996831 0.0089031 0.0003169 -0.0089031
118133 0.0003019 -0.0085183 0.9996981 0.0085183 0.9996981 0.0085183 0.0003019 -0.0085183
123542 0.0002878 -0.0081500 0.9997122 0.0081500 0.9997122 0.0081500 0.0002878 -0.0081500
129199 0.0002746 -0.0077976 0.9997254 0.0077976 0.9997254 0.0077976 0.0002746 -0.0077976
135116 0.0002623 -0.0074604 0.9997377 0.0074604 0.9997377 0.0074604 0.0002623 -0.0074604
141303 0.0002508 -0.0071377 0.9997492 0.0071377 0.9997492 0.0071377 0.0002508 -0.0071377
147774 0.0002401 -0.0068289 0.9997599 0.0068289 0.9997599 0.0068289 0.0002401 -0.0068289
154540 0.0002300 -0.0065335 0.9997700 0.0065335 0.9997700 0.0065335 0.0002300 -0.0065335
161617 0.0002206 -0.0062509 0.9997794 0.0062509 0.9997794 0.0062509 0.0002206 -0.0062509
169018 0.0002118 -0.0059804 0.9997882 0.0059804 0.9997882 0.0059804 0.0002118 -0.0059804
176758 0.0002035 -0.0057217 0.9997965 0.0057217 0.9997965 0.0057217 0.0002035 -0.0057217
184852 0.0001957 -0.0054741 0.9998043 0.0054741 0.9998043 0.0054741 0.0001957 -0.0054741
193316 0.0001884 -0.0052373 0.9998116 0.0052373 0.9998116 0.0052373 0.0001884 -0.0052373
202169 0.0001815 -0.0050108 0.9998185 0.0050108 0.9998185 0.0050108 0.0001815 -0.0050108
211427 0.0001750 -0.0047940 0.9998250 0.0047940 0.9998250 0.0047940 0.0001750 -0.0047940
221108 0.0001689 -0.0045867 0.9998311 0.0045867 0.9998311 0.0045867 0.0001689 -0.0045867
231233 0.0001631 -0.0043883 0.9998369 0.0043883 0.9998369 0.0043883 0.0001631 -0.0043883
241822 0.0001576 -0.0041985 0.9998424 0.0041985 0.9998424 0.0041985 0.0001576 -0.0041985
252896 0.0001523 -0.0040169 0.9998477 0.0040169 0.9998477 0.0040169 0.0001523 -0.0040169
264476 0.0001473 -0.0038432 0.9998527 0.0038432 0.9998527 0.0038432 0.0001473 -0.0038432
276587 0.0001426 -0.0036770 0.9998574 0.0036770 0.9998574 0.0036770 0.0001426 -0.0036770
289253 0.0001380 -0.0035180 0.9998620 0.0035180 0.9998620 0.0035180 0.0001380 -0.0035180
302498 0.0001337 -0.0033658 0.9998663 0.0033658 0.9998663 0.0033658 0.0001337 -0.0033658
316350 0.0001295 -0.0032202 0.9998705 0.0032202 0.9998705 0.0032202 0.0001295 -0.0032202
330837 0.0001255 -0.0030809 0.9998745 0.0030809 0.9998745 0.0030809 0.0001255 -0.0030809
345986 0.0001216 -0.0029475 0.9998784 0.0029475 0.9998784 0.0029475 0.0001216 -0.0029475
361830 0.0001179 -0.0028199 0.9998821 0.0028199 0.9998821 0.0028199 0.0001179 -0.0028199
378399 0.0001143 -0.0026977 0.9998857 0.0026977 0.9998857 0.0026977 0.0001143 -0.0026977
395726 0.0001109 -0.0025808 0.9998891 0.0025808 0.9998891 0.0025808 0.0001109 -0.0025808
413847 0.0001075 -0.0024688 0.9998925 0.0024688 0.9998925 0.0024688 0.0001075 -0.0024688
432798 0.0001043 -0.0023616 0.9998957 0.0023616 0.9998957 0.0023616 0.0001043 -0.0023616
452617 0.0001013 -0.0022590 0.9998987 0.0022590 0.9998987 0.0022590 0.0001013 -0.0022590
473344 0.0000983 -0.0021607 0.9999017 0.0021607 0.9999017 0.0021607 0.0000983 -0.0021607
495019 0.0000954 -0.0020665 0.9999046 0.0020665 0.9999046 0.0020665 0.0000954 -0.0020665
517687 0.0000927 -0.0019763 0.9999073 0.0019763 0.9999073 0.0019763 0.0000927 -0.0019763
541393 0.0000901 -0.0018899 0.9999099 0.0018899 0.9999099 0.0018899 0.0000901 -0.0018899
566185 0.0000876 -0.0018072 0.9999124 0.0018072 0.9999124 0.0018072 0.0000876 -0.0018072
592111 0.0000852 -0.0017279 0.9999148 0.0017279 0.9999148 0.0017279 0.0000852 -0.0017279
619225 0.0000829 -0.0016519 0.9999171 0.0016519 0.9999171 0.0016519 0.0000829 -0.0016519
647581 0.0000807 -0.0015792 0.9999193 0.0015792 0.9999193 0.0015792 0.0000807 -0.0015792
677235 0.0000787 -0.0015094 0.9999213 0.0015094 0.9999213 0.0015094 0.0000787 -0.0015094
708247 0.0000767 -0.0014425 0.9999233 0.0014425 0.9999233 0.0014425 0.0000767 -0.0014425
740679 0.0000749 -0.0013785 0.9999251 0.0013785 0.9999251 0.0013785 0.0000749 -0.0013785
774597 0.0000732 -0.0013170 0.9999268 0.0013170 0.9999268 0.0013170 0.0000732 -0.0013170
810067 0.0000715 -0.0012582 0.9999285 0.0012582 0.9999285 0.0012582 0.0000715 -0.0012582
847162 0.0000700 -0.0012017 0.9999300 0.0012017 0.9999300 0.0012017 0.0000700 -0.0012017
885955 0.0000685 -0.0011476 0.9999315 0.0011476 0.9999315 0.0011476 0.0000685 -0.0011476
926525 0.0000672 -0.0010957 0.9999328 0.0010957 0.9999328 0.0010957 0.0000672 -0.0010957
968953 0.0000659 -0.0010459 0.9999341 0.0010459 0.9999341 0.0010459 0.0000659 -0.0010459
1013323 0.0000648 -0.0009981 0.9999352 0.0009981 0.9999352 0.0009981 0.0000648 -0.0009981
1059725 0.0000637 -0.0009523 0.9999363 0.0009523 0.9999363 0.0009523 0.0000637 -0.0009523
1108252 0.0000627 -0.0009083 0.9999373 0.0009083 0.9999373 0.0009083 0.0000627 -0.0009083
1159002 0.0000618 -0.0008662 0.9999382 0.0008662 0.9999382 0.0008662 0.0000618 -0.0008662
1212075 0.0000609 -0.0008257 0.9999391 0.0008257 0.9999391 0.0008257 0.0000609 -0.0008257
1267578 0.0000602 -0.0007868 0.9999398 0.0007868 0.9999398 0.0007868 0.0000602 -0.0007868
1325623 0.0000595 -0.0007494 0.9999405 0.0007494 0.9999405 0.0007494 0.0000595 -0.0007494
1386327 0.0000588 -0.0007136 0.9999412 0.0007136 0.9999412 0.0007136 0.0000588 -0.0007136
1449809 0.0000582 -0.0006791 0.9999418 0.0006791 0.9999418 0.0006791 0.0000582 -0.0006791
1516199 0.0000577 -0.0006460 0.9999423 0.0006460 0.9999423 0.0006460 0.0000577 -0.0006460
1585629 0.0000572 -0.0006141 0.9999428 0.0006141 0.9999428 0.0006141 0.0000572 -0.0006141
1658239 0.0000568 -0.0005834 0.9999432 0.0005834 0.9999432 0.0005834 0.0000568 -0.0005834
1734173 0.0000565 -0.0005539 0.9999435 0.0005539 0.9999435 0.0005539 0.0000565 -0.0005539
1813585 0.0000562 -0.0005255 0.9999438 0.0005255 0.9999438 0.0005255 0.0000562 -0.0005255
1896632 0.0000559 -0.0004982 0.9999441 0.0004982 0.9999441 0.0004982 0.0000559 -0.0004982
1983483 0.0000557 -0.0004718 0.9999443 0.0004718 0.9999443 0.0004718 0.0000557 -0.0004718
2074311 0.0000556 -0.0004463 0.9999444 0.0004463 0.9999444 0.0004463 0.0000556 -0.0004463
2169299 0.0000554 -0.0004218 0.9999446 0.0004218 0.9999446 0.0004218 0.0000554 -0.0004218
