!Murata Part Number: GRM185C81A475KE11
!These Parameters are Measured in Series Mode Connection
!       o--ll--o
!Port1            Port2
!       o------o
!Operation Temp=25[C], DC Bias Voltage=0[V]
!Freq. Start=100[Hz] Stop=6000000000[Hz] 401[Steps]
# Hz S RI R 50
!Freq.(Hz) S11(Real) S11(Imag) S21(Real) S21(Imag) S12(Real) S12(Imag) S22(Real) S22(Imag)
100 0.9506248 -0.2091963 0.0493752 0.2091963 0.0493752 0.2091963 0.9506248 -0.2091963
105 0.9464175 -0.2176732 0.0535825 0.2176732 0.0535825 0.2176732 0.9464175 -0.2176732
109 0.9418708 -0.2264037 0.0581292 0.2264037 0.0581292 0.2264037 0.9418708 -0.2264037
114 0.9369615 -0.2353836 0.0630385 0.2353836 0.0630385 0.2353836 0.9369615 -0.2353836
120 0.9316653 -0.2446070 0.0683347 0.2446070 0.0683347 0.2446070 0.9316653 -0.2446070
125 0.9259568 -0.2540659 0.0740432 0.2540659 0.0740432 0.2540659 0.9259568 -0.2540659
131 0.9198103 -0.2637502 0.0801897 0.2637502 0.0801897 0.2637502 0.9198103 -0.2637502
137 0.9131992 -0.2736475 0.0868008 0.2736475 0.0868008 0.2736475 0.9131992 -0.2736475
143 0.9060963 -0.2837424 0.0939037 0.2837424 0.0939037 0.2837424 0.9060963 -0.2837424
150 0.8984745 -0.2940169 0.1015255 0.2940169 0.1015255 0.2940169 0.8984745 -0.2940169
156 0.8903064 -0.3044499 0.1096936 0.3044499 0.1096936 0.3044499 0.8903064 -0.3044499
164 0.8815650 -0.3150169 0.1184350 0.3150169 0.1184350 0.3150169 0.8815650 -0.3150169
171 0.8722238 -0.3256899 0.1277762 0.3256899 0.1277762 0.3256899 0.8722238 -0.3256899
179 0.8622576 -0.3364373 0.1377424 0.3364373 0.1377424 0.3364373 0.8622576 -0.3364373
187 0.8516422 -0.3472235 0.1483578 0.3472235 0.1483578 0.3472235 0.8516422 -0.3472235
196 0.8403559 -0.3580094 0.1596441 0.3580094 0.1596441 0.3580094 0.8403559 -0.3580094
205 0.8283790 -0.3687516 0.1716210 0.3687516 0.1716210 0.3687516 0.8283790 -0.3687516
214 0.8156953 -0.3794031 0.1843047 0.3794031 0.1843047 0.3794031 0.8156953 -0.3794031
224 0.8022920 -0.3899131 0.1977080 0.3899131 0.1977080 0.3899131 0.8022920 -0.3899131
234 0.7881607 -0.4002274 0.2118393 0.4002274 0.2118393 0.4002274 0.7881607 -0.4002274
245 0.7732981 -0.4102887 0.2267019 0.4102887 0.2267019 0.4102887 0.7732981 -0.4102887
256 0.7577063 -0.4200370 0.2422937 0.4200370 0.2422937 0.4200370 0.7577063 -0.4200370
268 0.7413938 -0.4294103 0.2586062 0.4294103 0.2586062 0.4294103 0.7413938 -0.4294103
280 0.7243756 -0.4383452 0.2756244 0.4383452 0.2756244 0.4383452 0.7243756 -0.4383452
293 0.7066739 -0.4467778 0.2933261 0.4467778 0.2933261 0.4467778 0.7066739 -0.4467778
306 0.6883184 -0.4546449 0.3116816 0.4546449 0.3116816 0.4546449 0.6883184 -0.4546449
320 0.6693461 -0.4618842 0.3306539 0.4618842 0.3306539 0.4618842 0.6693461 -0.4618842
335 0.6498019 -0.4684365 0.3501981 0.4684365 0.3501981 0.4684365 0.6498019 -0.4684365
350 0.6297380 -0.4742459 0.3702620 0.4742459 0.3702620 0.4742459 0.6297380 -0.4742459
366 0.6092138 -0.4792613 0.3907862 0.4792613 0.3907862 0.4792613 0.6092138 -0.4792613
383 0.5882950 -0.4834374 0.4117050 0.4834374 0.4117050 0.4834374 0.5882950 -0.4834374
401 0.5670531 -0.4867358 0.4329469 0.4867358 0.4329469 0.4867358 0.5670531 -0.4867358
419 0.5455644 -0.4891256 0.4544356 0.4891256 0.4544356 0.4891256 0.5455644 -0.4891256
438 0.5239089 -0.4905845 0.4760911 0.4905845 0.4760911 0.4905845 0.5239089 -0.4905845
458 0.5021693 -0.4910990 0.4978307 0.4910990 0.4978307 0.4910990 0.5021693 -0.4910990
479 0.4804294 -0.4906647 0.5195706 0.4906647 0.5195706 0.4906647 0.4804294 -0.4906647
501 0.4587728 -0.4892867 0.5412272 0.4892867 0.5412272 0.4892867 0.4587728 -0.4892867
524 0.4372817 -0.4869792 0.5627183 0.4869792 0.5627183 0.4869792 0.4372817 -0.4869792
548 0.4160358 -0.4837651 0.5839642 0.4837651 0.5839642 0.4837651 0.4160358 -0.4837651
573 0.3951108 -0.4796757 0.6048892 0.4796757 0.6048892 0.4796757 0.3951108 -0.4796757
600 0.3745775 -0.4747497 0.6254225 0.4747497 0.6254225 0.4747497 0.3745775 -0.4747497
627 0.3545008 -0.4690327 0.6454992 0.4690327 0.6454992 0.4690327 0.3545008 -0.4690327
656 0.3349391 -0.4625754 0.6650609 0.4625754 0.6650609 0.4625754 0.3349391 -0.4625754
686 0.3159439 -0.4554336 0.6840561 0.4554336 0.6840561 0.4554336 0.3159439 -0.4554336
717 0.2975592 -0.4476662 0.7024408 0.4476662 0.7024408 0.4476662 0.2975592 -0.4476662
750 0.2798214 -0.4393345 0.7201786 0.4393345 0.7201786 0.4393345 0.2798214 -0.4393345
784 0.2627596 -0.4305012 0.7372404 0.4305012 0.7372404 0.4305012 0.2627596 -0.4305012
820 0.2463956 -0.4212293 0.7536044 0.4212293 0.7536044 0.4212293 0.2463956 -0.4212293
858 0.2307442 -0.4115810 0.7692558 0.4115810 0.7692558 0.4115810 0.2307442 -0.4115810
897 0.2158137 -0.4016175 0.7841863 0.4016175 0.7841863 0.4016175 0.2158137 -0.4016175
938 0.2016064 -0.3913976 0.7983936 0.3913976 0.7983936 0.3913976 0.2016064 -0.3913976
981 0.1881192 -0.3809777 0.8118808 0.3809777 0.8118808 0.3809777 0.1881192 -0.3809777
1026 0.1753443 -0.3704110 0.8246557 0.3704110 0.8246557 0.3704110 0.1753443 -0.3704110
1073 0.1632695 -0.3597474 0.8367305 0.3597474 0.8367305 0.3597474 0.1632695 -0.3597474
1122 0.1518792 -0.3490333 0.8481208 0.3490333 0.8481208 0.3490333 0.1518792 -0.3490333
1174 0.1411548 -0.3383113 0.8588452 0.3383113 0.8588452 0.3383113 0.1411548 -0.3383113
1227 0.1310752 -0.3276201 0.8689248 0.3276201 0.8689248 0.3276201 0.1310752 -0.3276201
1283 0.1216175 -0.3169951 0.8783825 0.3169951 0.8783825 0.3169951 0.1216175 -0.3169951
1342 0.1127571 -0.3064676 0.8872429 0.3064676 0.8872429 0.3064676 0.1127571 -0.3064676
1404 0.1044687 -0.2960655 0.8955313 0.2960655 0.8955313 0.2960655 0.1044687 -0.2960655
1468 0.0967262 -0.2858135 0.9032738 0.2858135 0.9032738 0.2858135 0.0967262 -0.2858135
1535 0.0895032 -0.2757329 0.9104968 0.2757329 0.9104968 0.2757329 0.0895032 -0.2757329
1606 0.0827731 -0.2658421 0.9172269 0.2658421 0.9172269 0.2658421 0.0827731 -0.2658421
1679 0.0765097 -0.2561567 0.9234903 0.2561567 0.9234903 0.2561567 0.0765097 -0.2561567
1756 0.0706870 -0.2466897 0.9293130 0.2466897 0.9293130 0.2466897 0.0706870 -0.2466897
1836 0.0652798 -0.2374519 0.9347202 0.2374519 0.9347202 0.2374519 0.0652798 -0.2374519
1920 0.0602632 -0.2284516 0.9397368 0.2284516 0.9397368 0.2284516 0.0602632 -0.2284516
2008 0.0556134 -0.2196954 0.9443866 0.2196954 0.9443866 0.2196954 0.0556134 -0.2196954
2100 0.0513073 -0.2111880 0.9486927 0.2111880 0.9486927 0.2111880 0.0513073 -0.2111880
2196 0.0473227 -0.2029326 0.9526773 0.2029326 0.9526773 0.2029326 0.0473227 -0.2029326
2297 0.0436385 -0.1949308 0.9563615 0.1949308 0.9563615 0.1949308 0.0436385 -0.1949308
2402 0.0402344 -0.1871832 0.9597656 0.1871832 0.9597656 0.1871832 0.0402344 -0.1871832
2512 0.0370913 -0.1796889 0.9629087 0.1796889 0.9629087 0.1796889 0.0370913 -0.1796889
2627 0.0341909 -0.1724463 0.9658091 0.1724463 0.9658091 0.1724463 0.0341909 -0.1724463
2748 0.0315159 -0.1654529 0.9684841 0.1654529 0.9684841 0.1654529 0.0315159 -0.1654529
2873 0.0290502 -0.1587054 0.9709498 0.1587054 0.9709498 0.1587054 0.0290502 -0.1587054
3005 0.0267783 -0.1521997 0.9732217 0.1521997 0.9732217 0.1521997 0.0267783 -0.1521997
3143 0.0246860 -0.1459316 0.9753140 0.1459316 0.9753140 0.1459316 0.0246860 -0.1459316
3287 0.0227598 -0.1398960 0.9772402 0.1398960 0.9772402 0.1398960 0.0227598 -0.1398960
3437 0.0209870 -0.1340876 0.9790130 0.1340876 0.9790130 0.1340876 0.0209870 -0.1340876
3594 0.0193559 -0.1285008 0.9806441 0.1285008 0.9806441 0.1285008 0.0193559 -0.1285008
3759 0.0178554 -0.1231298 0.9821446 0.1231298 0.9821446 0.1231298 0.0178554 -0.1231298
3931 0.0164754 -0.1179686 0.9835246 0.1179686 0.9835246 0.1179686 0.0164754 -0.1179686
4111 0.0152063 -0.1130110 0.9847937 0.1130110 0.9847937 0.1130110 0.0152063 -0.1130110
4299 0.0140393 -0.1082508 0.9859607 0.1082508 0.9859607 0.1082508 0.0140393 -0.1082508
4496 0.0129661 -0.1036816 0.9870339 0.1036816 0.9870339 0.1036816 0.0129661 -0.1036816
4702 0.0119793 -0.0992973 0.9880207 0.0992973 0.9880207 0.0992973 0.0119793 -0.0992973
4918 0.0110716 -0.0950915 0.9889284 0.0950915 0.9889284 0.0950915 0.0110716 -0.0950915
5143 0.0102368 -0.0910579 0.9897632 0.0910579 0.9897632 0.0910579 0.0102368 -0.0910579
5378 0.0094687 -0.0871905 0.9905313 0.0871905 0.9905313 0.0871905 0.0094687 -0.0871905
5625 0.0087618 -0.0834832 0.9912382 0.0834832 0.9912382 0.0834832 0.0087618 -0.0834832
5882 0.0081111 -0.0799300 0.9918889 0.0799300 0.9918889 0.0799300 0.0081111 -0.0799300
6151 0.0075118 -0.0765250 0.9924882 0.0765250 0.9924882 0.0765250 0.0075118 -0.0765250
6433 0.0069597 -0.0732625 0.9930403 0.0732625 0.9930403 0.0732625 0.0069597 -0.0732625
6728 0.0064509 -0.0701370 0.9935491 0.0701370 0.9935491 0.0701370 0.0064509 -0.0701370
7036 0.0059816 -0.0671430 0.9940184 0.0671430 0.9940184 0.0671430 0.0059816 -0.0671430
7358 0.0055487 -0.0642752 0.9944513 0.0642752 0.9944513 0.0642752 0.0055487 -0.0642752
7695 0.0051491 -0.0615285 0.9948509 0.0615285 0.9948509 0.0615285 0.0051491 -0.0615285
8047 0.0047800 -0.0588980 0.9952200 0.0588980 0.9952200 0.0588980 0.0047800 -0.0588980
8416 0.0044389 -0.0563788 0.9955611 0.0563788 0.9955611 0.0563788 0.0044389 -0.0563788
8801 0.0041235 -0.0539663 0.9958765 0.0539663 0.9958765 0.0539663 0.0041235 -0.0539663
9204 0.0038318 -0.0516561 0.9961682 0.0516561 0.9961682 0.0516561 0.0038318 -0.0516561
9626 0.0035618 -0.0494439 0.9964382 0.0494439 0.9964382 0.0494439 0.0035618 -0.0494439
10066 0.0033118 -0.0473255 0.9966882 0.0473255 0.9966882 0.0473255 0.0033118 -0.0473255
10527 0.0030802 -0.0452970 0.9969198 0.0452970 0.9969198 0.0452970 0.0030802 -0.0452970
11009 0.0028657 -0.0433546 0.9971343 0.0433546 0.9971343 0.0433546 0.0028657 -0.0433546
11514 0.0026668 -0.0414946 0.9973332 0.0414946 0.9973332 0.0414946 0.0026668 -0.0414946
12041 0.0024825 -0.0397135 0.9975175 0.0397135 0.9975175 0.0397135 0.0024825 -0.0397135
12592 0.0023116 -0.0380081 0.9976884 0.0380081 0.9976884 0.0380081 0.0023116 -0.0380081
13169 0.0021531 -0.0363750 0.9978469 0.0363750 0.9978469 0.0363750 0.0021531 -0.0363750
13772 0.0020062 -0.0348114 0.9979938 0.0348114 0.9979938 0.0348114 0.0020062 -0.0348114
14402 0.0018700 -0.0333141 0.9981300 0.0333141 0.9981300 0.0333141 0.0018700 -0.0333141
15062 0.0017437 -0.0318805 0.9982563 0.0318805 0.9982563 0.0318805 0.0017437 -0.0318805
15752 0.0016266 -0.0305078 0.9983734 0.0305078 0.9983734 0.0305078 0.0016266 -0.0305078
16473 0.0015181 -0.0291935 0.9984819 0.0291935 0.9984819 0.0291935 0.0015181 -0.0291935
17227 0.0014176 -0.0279353 0.9985824 0.0279353 0.9985824 0.0279353 0.0014176 -0.0279353
18016 0.0013246 -0.0267306 0.9986754 0.0267306 0.9986754 0.0267306 0.0013246 -0.0267306
18841 0.0012384 -0.0255773 0.9987616 0.0255773 0.9987616 0.0255773 0.0012384 -0.0255773
19704 0.0011586 -0.0244733 0.9988414 0.0244733 0.9988414 0.0244733 0.0011586 -0.0244733
20606 0.0010847 -0.0234164 0.9989153 0.0234164 0.9989153 0.0234164 0.0010847 -0.0234164
21550 0.0010164 -0.0224048 0.9989836 0.0224048 0.9989836 0.0224048 0.0010164 -0.0224048
22537 0.0009532 -0.0214366 0.9990468 0.0214366 0.9990468 0.0214366 0.0009532 -0.0214366
23569 0.0008947 -0.0205098 0.9991053 0.0205098 0.9991053 0.0205098 0.0008947 -0.0205098
24648 0.0008407 -0.0196229 0.9991593 0.0196229 0.9991593 0.0196229 0.0008407 -0.0196229
25777 0.0007907 -0.0187741 0.9992093 0.0187741 0.9992093 0.0187741 0.0007907 -0.0187741
26957 0.0007444 -0.0179619 0.9992556 0.0179619 0.9992556 0.0179619 0.0007444 -0.0179619
28191 0.0007017 -0.0171847 0.9992983 0.0171847 0.9992983 0.0171847 0.0007017 -0.0171847
29482 0.0006622 -0.0164410 0.9993378 0.0164410 0.9993378 0.0164410 0.0006622 -0.0164410
30832 0.0006256 -0.0157294 0.9993744 0.0157294 0.9993744 0.0157294 0.0006256 -0.0157294
32244 0.0005917 -0.0150487 0.9994083 0.0150487 0.9994083 0.0150487 0.0005917 -0.0150487
33721 0.0005604 -0.0143974 0.9994396 0.0143974 0.9994396 0.0143974 0.0005604 -0.0143974
35265 0.0005313 -0.0137743 0.9994687 0.0137743 0.9994687 0.0137743 0.0005313 -0.0137743
36880 0.0005044 -0.0131782 0.9994956 0.0131782 0.9994956 0.0131782 0.0005044 -0.0131782
38569 0.0004794 -0.0126081 0.9995206 0.0126081 0.9995206 0.0126081 0.0004794 -0.0126081
40335 0.0004561 -0.0120627 0.9995439 0.0120627 0.9995439 0.0120627 0.0004561 -0.0120627
42182 0.0004345 -0.0115410 0.9995655 0.0115410 0.9995655 0.0115410 0.0004345 -0.0115410
44113 0.0004144 -0.0110420 0.9995856 0.0110420 0.9995856 0.0110420 0.0004144 -0.0110420
46134 0.0003956 -0.0105647 0.9996044 0.0105647 0.9996044 0.0105647 0.0003956 -0.0105647
48246 0.0003780 -0.0101081 0.9996220 0.0101081 0.9996220 0.0101081 0.0003780 -0.0101081
50455 0.0003616 -0.0096714 0.9996384 0.0096714 0.9996384 0.0096714 0.0003616 -0.0096714
52766 0.0003462 -0.0092538 0.9996538 0.0092538 0.9996538 0.0092538 0.0003462 -0.0092538
55182 0.0003317 -0.0088543 0.9996683 0.0088543 0.9996683 0.0088543 0.0003317 -0.0088543
57709 0.0003181 -0.0084721 0.9996819 0.0084721 0.9996819 0.0084721 0.0003181 -0.0084721
60352 0.0003052 -0.0081066 0.9996948 0.0081066 0.9996948 0.0081066 0.0003052 -0.0081066
63115 0.0002931 -0.0077570 0.9997069 0.0077570 0.9997069 0.0077570 0.0002931 -0.0077570
66005 0.0002816 -0.0074225 0.9997184 0.0074225 0.9997184 0.0074225 0.0002816 -0.0074225
69028 0.0002707 -0.0071026 0.9997293 0.0071026 0.9997293 0.0071026 0.0002707 -0.0071026
72189 0.0002604 -0.0067965 0.9997396 0.0067965 0.9997396 0.0067965 0.0002604 -0.0067965
75495 0.0002506 -0.0065037 0.9997494 0.0065037 0.9997494 0.0065037 0.0002506 -0.0065037
78952 0.0002412 -0.0062236 0.9997588 0.0062236 0.9997588 0.0062236 0.0002412 -0.0062236
82567 0.0002323 -0.0059555 0.9997677 0.0059555 0.9997677 0.0059555 0.0002323 -0.0059555
86348 0.0002238 -0.0056991 0.9997762 0.0056991 0.9997762 0.0056991 0.0002238 -0.0056991
90302 0.0002157 -0.0054537 0.9997843 0.0054537 0.9997843 0.0054537 0.0002157 -0.0054537
94437 0.0002079 -0.0052189 0.9997921 0.0052189 0.9997921 0.0052189 0.0002079 -0.0052189
98762 0.0002005 -0.0049942 0.9997995 0.0049942 0.9997995 0.0049942 0.0002005 -0.0049942
103284 0.0001934 -0.0047792 0.9998066 0.0047792 0.9998066 0.0047792 0.0001934 -0.0047792
108014 0.0001867 -0.0045734 0.9998133 0.0045734 0.9998133 0.0045734 0.0001867 -0.0045734
112960 0.0001802 -0.0043765 0.9998198 0.0043765 0.9998198 0.0043765 0.0001802 -0.0043765
118133 0.0001740 -0.0041880 0.9998260 0.0041880 0.9998260 0.0041880 0.0001740 -0.0041880
123542 0.0001681 -0.0040076 0.9998319 0.0040076 0.9998319 0.0040076 0.0001681 -0.0040076
129199 0.0001625 -0.0038350 0.9998375 0.0038350 0.9998375 0.0038350 0.0001625 -0.0038350
135116 0.0001571 -0.0036697 0.9998429 0.0036697 0.9998429 0.0036697 0.0001571 -0.0036697
141303 0.0001520 -0.0035116 0.9998480 0.0035116 0.9998480 0.0035116 0.0001520 -0.0035116
147774 0.0001471 -0.0033602 0.9998529 0.0033602 0.9998529 0.0033602 0.0001471 -0.0033602
154540 0.0001424 -0.0032153 0.9998576 0.0032153 0.9998576 0.0032153 0.0001424 -0.0032153
161617 0.0001379 -0.0030766 0.9998621 0.0030766 0.9998621 0.0030766 0.0001379 -0.0030766
169018 0.0001336 -0.0029438 0.9998664 0.0029438 0.9998664 0.0029438 0.0001336 -0.0029438
176758 0.0001295 -0.0028167 0.9998705 0.0028167 0.9998705 0.0028167 0.0001295 -0.0028167
184852 0.0001256 -0.0026951 0.9998744 0.0026951 0.9998744 0.0026951 0.0001256 -0.0026951
193316 0.0001219 -0.0025786 0.9998781 0.0025786 0.9998781 0.0025786 0.0001219 -0.0025786
202169 0.0001183 -0.0024672 0.9998817 0.0024672 0.9998817 0.0024672 0.0001183 -0.0024672
211427 0.0001149 -0.0023604 0.9998851 0.0023604 0.9998851 0.0023604 0.0001149 -0.0023604
221108 0.0001117 -0.0022583 0.9998883 0.0022583 0.9998883 0.0022583 0.0001117 -0.0022583
231233 0.0001086 -0.0021605 0.9998914 0.0021605 0.9998914 0.0021605 0.0001086 -0.0021605
241822 0.0001056 -0.0020668 0.9998944 0.0020668 0.9998944 0.0020668 0.0001056 -0.0020668
252896 0.0001027 -0.0019772 0.9998973 0.0019772 0.9998973 0.0019772 0.0001027 -0.0019772
264476 0.0001000 -0.0018913 0.9999000 0.0018913 0.9999000 0.0018913 0.0001000 -0.0018913
276587 0.0000974 -0.0018091 0.9999026 0.0018091 0.9999026 0.0018091 0.0000974 -0.0018091
289253 0.0000949 -0.0017303 0.9999051 0.0017303 0.9999051 0.0017303 0.0000949 -0.0017303
302498 0.0000925 -0.0016549 0.9999075 0.0016549 0.9999075 0.0016549 0.0000925 -0.0016549
316350 0.0000902 -0.0015827 0.9999098 0.0015827 0.9999098 0.0015827 0.0000902 -0.0015827
330837 0.0000880 -0.0015135 0.9999120 0.0015135 0.9999120 0.0015135 0.0000880 -0.0015135
345986 0.0000859 -0.0014472 0.9999141 0.0014472 0.9999141 0.0014472 0.0000859 -0.0014472
361830 0.0000839 -0.0013837 0.9999161 0.0013837 0.9999161 0.0013837 0.0000839 -0.0013837
378399 0.0000820 -0.0013229 0.9999180 0.0013229 0.9999180 0.0013229 0.0000820 -0.0013229
395726 0.0000801 -0.0012645 0.9999199 0.0012645 0.9999199 0.0012645 0.0000801 -0.0012645
413847 0.0000784 -0.0012087 0.9999216 0.0012087 0.9999216 0.0012087 0.0000784 -0.0012087
432798 0.0000768 -0.0011551 0.9999232 0.0011551 0.9999232 0.0011551 0.0000768 -0.0011551
452617 0.0000752 -0.0011038 0.9999248 0.0011038 0.9999248 0.0011038 0.0000752 -0.0011038
473344 0.0000737 -0.0010545 0.9999263 0.0010545 0.9999263 0.0010545 0.0000737 -0.0010545
495019 0.0000724 -0.0010074 0.9999276 0.0010074 0.9999276 0.0010074 0.0000724 -0.0010074
517687 0.0000711 -0.0009621 0.9999289 0.0009621 0.9999289 0.0009621 0.0000711 -0.0009621
541393 0.0000698 -0.0009187 0.9999302 0.0009187 0.9999302 0.0009187 0.0000698 -0.0009187
566185 0.0000687 -0.0008771 0.9999313 0.0008771 0.9999313 0.0008771 0.0000687 -0.0008771
592111 0.0000676 -0.0008371 0.9999324 0.0008371 0.9999324 0.0008371 0.0000676 -0.0008371
619225 0.0000666 -0.0007988 0.9999334 0.0007988 0.9999334 0.0007988 0.0000666 -0.0007988
647581 0.0000657 -0.0007621 0.9999343 0.0007621 0.9999343 0.0007621 0.0000657 -0.0007621
677235 0.0000648 -0.0007268 0.9999352 0.0007268 0.9999352 0.0007268 0.0000648 -0.0007268
708247 0.0000640 -0.0006929 0.9999360 0.0006929 0.9999360 0.0006929 0.0000640 -0.0006929
740679 0.0000632 -0.0006604 0.9999368 0.0006604 0.9999368 0.0006604 0.0000632 -0.0006604
774597 0.0000626 -0.0006292 0.9999374 0.0006292 0.9999374 0.0006292 0.0000626 -0.0006292
810067 0.0000619 -0.0005991 0.9999381 0.0005991 0.9999381 0.0005991 0.0000619 -0.0005991
847162 0.0000614 -0.0005703 0.9999386 0.0005703 0.9999386 0.0005703 0.0000614 -0.0005703
885955 0.0000608 -0.0005426 0.9999392 0.0005426 0.9999392 0.0005426 0.0000608 -0.0005426
926525 0.0000604 -0.0005159 0.9999396 0.0005159 0.9999396 0.0005159 0.0000604 -0.0005159
968953 0.0000600 -0.0004903 0.9999400 0.0004903 0.9999400 0.0004903 0.0000600 -0.0004903
1013323 0.0000596 -0.0004656 0.9999404 0.0004656 0.9999404 0.0004656 0.0000596 -0.0004656
1059725 0.0000593 -0.0004418 0.9999407 0.0004418 0.9999407 0.0004418 0.0000593 -0.0004418
1108252 0.0000590 -0.0004189 0.9999410 0.0004189 0.9999410 0.0004189 0.0000590 -0.0004189
1159002 0.0000588 -0.0003968 0.9999412 0.0003968 0.9999412 0.0003968 0.0000588 -0.0003968
1212075 0.0000586 -0.0003755 0.9999414 0.0003755 0.9999414 0.0003755 0.0000586 -0.0003755
1267578 0.0000585 -0.0003550 0.9999415 0.0003550 0.9999415 0.0003550 0.0000585 -0.0003550
1325623 0.0000584 -0.0003351 0.9999416 0.0003351 0.9999416 0.0003351 0.0000584 -0.0003351
1386327 0.0000583 -0.0003159 0.9999417 0.0003159 0.9999417 0.0003159 0.0000583 -0.0003159
1449809 0.0000583 -0.0002974 0.9999417 0.0002974 0.9999417 0.0002974 0.0000583 -0.0002974
1516199 0.0000583 -0.0002794 0.9999417 0.0002794 0.9999417 0.0002794 0.0000583 -0.0002794
1585629 0.0000584 -0.0002620 0.9999416 0.0002620 0.9999416 0.0002620 0.0000584 -0.0002620
1658239 0.0000585 -0.0002451 0.9999415 0.0002451 0.9999415 0.0002451 0.0000585 -0.0002451
1734173 0.0000587 -0.0002287 0.9999413 0.0002287 0.9999413 0.0002287 0.0000587 -0.0002287
1813585 0.0000589 -0.0002128 0.9999411 0.0002128 0.9999411 0.0002128 0.0000589 -0.0002128
1896632 0.0000592 -0.0001973 0.9999408 0.0001973 0.9999408 0.0001973 0.0000592 -0.0001973
1983483 0.0000595 -0.0001822 0.9999405 0.0001822 0.9999405 0.0001822 0.0000595 -0.0001822
2074311 0.0000598 -0.0001674 0.9999402 0.0001674 0.9999402 0.0001674 0.0000598 -0.0001674
2169299 0.0000603 -0.0001530 0.9999397 0.0001530 0.9999397 0.0001530 0.0000603 -0.0001530
