!Murata Part Number: GRM188R61A106KAAL
!These Parameters are Measured in Series Mode Connection
!       o--ll--o
!Port1            Port2
!       o------o
!Operation Temp=25[C], DC Bias Voltage=0[V]
!Freq. Start=100[Hz] Stop=6000000000[Hz] 401[Steps]
# Hz S RI R 50
!Freq.(Hz) S11(Real) S11(Imag) S21(Real) S21(Imag) S12(Real) S12(Imag) S22(Real) S22(Imag)
100 0.8544607 -0.3451524 0.1455393 0.3451524 0.1455393 0.3451524 0.8544607 -0.3451524
105 0.8433241 -0.3559836 0.1566759 0.3559836 0.1566759 0.3559836 0.8433241 -0.3559836
109 0.8314966 -0.3667818 0.1685034 0.3667818 0.1685034 0.3667818 0.8314966 -0.3667818
114 0.8189612 -0.3774999 0.1810388 0.3774999 0.1810388 0.3774999 0.8189612 -0.3774999
120 0.8057047 -0.3880873 0.1942953 0.3880873 0.1942953 0.3880873 0.8057047 -0.3880873
125 0.7917182 -0.3984900 0.2082818 0.3984900 0.2082818 0.3984900 0.7917182 -0.3984900
131 0.7769976 -0.4086508 0.2230024 0.4086508 0.2230024 0.4086508 0.7769976 -0.4086508
137 0.7615448 -0.4185103 0.2384552 0.4185103 0.2384552 0.4185103 0.7615448 -0.4185103
143 0.7453671 -0.4280066 0.2546329 0.4280066 0.2546329 0.4280066 0.7453671 -0.4280066
150 0.7284790 -0.4370771 0.2715210 0.4370771 0.2715210 0.4370771 0.7284790 -0.4370771
156 0.7109015 -0.4456583 0.2890985 0.4456583 0.2890985 0.4456583 0.7109015 -0.4456583
164 0.6926628 -0.4536872 0.3073372 0.4536872 0.3073372 0.4536872 0.6926628 -0.4536872
171 0.6737988 -0.4611022 0.3262012 0.4611022 0.3262012 0.4611022 0.6737988 -0.4611022
179 0.6543523 -0.4678440 0.3456477 0.4678440 0.3456477 0.4678440 0.6543523 -0.4678440
187 0.6343736 -0.4738567 0.3656264 0.4738567 0.3656264 0.4738567 0.6343736 -0.4738567
196 0.6139197 -0.4790888 0.3860803 0.4790888 0.3860803 0.4790888 0.6139197 -0.4790888
205 0.5930541 -0.4834942 0.4069459 0.4834942 0.4069459 0.4834942 0.5930541 -0.4834942
214 0.5718459 -0.4870330 0.4281541 0.4870330 0.4281541 0.4870330 0.5718459 -0.4870330
224 0.5503690 -0.4896728 0.4496310 0.4896728 0.4496310 0.4896728 0.5503690 -0.4896728
234 0.5287014 -0.4913887 0.4712986 0.4913887 0.4712986 0.4913887 0.5287014 -0.4913887
245 0.5069238 -0.4921644 0.4930762 0.4921644 0.4930762 0.4921644 0.5069238 -0.4921644
256 0.4851185 -0.4919922 0.5148815 0.4919922 0.5148815 0.4919922 0.4851185 -0.4919922
268 0.4633684 -0.4908735 0.5366316 0.4908735 0.5366316 0.4908735 0.4633684 -0.4908735
280 0.4417556 -0.4888185 0.5582444 0.4888185 0.5582444 0.4888185 0.4417556 -0.4888185
293 0.4203601 -0.4858463 0.5796399 0.4858463 0.5796399 0.4858463 0.4203601 -0.4858463
306 0.3992589 -0.4819839 0.6007411 0.4819839 0.6007411 0.4819839 0.3992589 -0.4819839
320 0.3785247 -0.4772663 0.6214753 0.4772663 0.6214753 0.4772663 0.3785247 -0.4772663
335 0.3582252 -0.4717354 0.6417748 0.4717354 0.6417748 0.4717354 0.3582252 -0.4717354
350 0.3384221 -0.4654392 0.6615779 0.4654392 0.6615779 0.4654392 0.3384221 -0.4654392
366 0.3191704 -0.4584308 0.6808296 0.4584308 0.6808296 0.4584308 0.3191704 -0.4584308
383 0.3005185 -0.4507675 0.6994815 0.4507675 0.6994815 0.4507675 0.3005185 -0.4507675
401 0.2825072 -0.4425097 0.7174928 0.4425097 0.7174928 0.4425097 0.2825072 -0.4425097
419 0.2651700 -0.4337198 0.7348300 0.4337198 0.7348300 0.4337198 0.2651700 -0.4337198
438 0.2485328 -0.4244613 0.7514672 0.4244613 0.7514672 0.4244613 0.2485328 -0.4244613
458 0.2326148 -0.4147979 0.7673852 0.4147979 0.7673852 0.4147979 0.2326148 -0.4147979
479 0.2174280 -0.4047925 0.7825720 0.4047925 0.7825720 0.4047925 0.2174280 -0.4047925
501 0.2029780 -0.3945064 0.7970220 0.3945064 0.7970220 0.3945064 0.2029780 -0.3945064
524 0.1892645 -0.3839988 0.8107355 0.3839988 0.8107355 0.3839988 0.1892645 -0.3839988
548 0.1762818 -0.3733262 0.8237182 0.3733262 0.8237182 0.3733262 0.1762818 -0.3733262
573 0.1640194 -0.3625419 0.8359806 0.3625419 0.8359806 0.3625419 0.1640194 -0.3625419
600 0.1524625 -0.3516957 0.8475375 0.3516957 0.8475375 0.3516957 0.1524625 -0.3516957
627 0.1415930 -0.3408336 0.8584070 0.3408336 0.8584070 0.3408336 0.1415930 -0.3408336
656 0.1313896 -0.3299977 0.8686104 0.3299977 0.8686104 0.3299977 0.1313896 -0.3299977
686 0.1218287 -0.3192263 0.8781713 0.3192263 0.8781713 0.3192263 0.1218287 -0.3192263
717 0.1128847 -0.3085535 0.8871153 0.3085535 0.8871153 0.3085535 0.1128847 -0.3085535
750 0.1045309 -0.2980097 0.8954691 0.2980097 0.8954691 0.2980097 0.1045309 -0.2980097
784 0.0967394 -0.2876217 0.9032606 0.2876217 0.9032606 0.2876217 0.0967394 -0.2876217
820 0.0894819 -0.2774123 0.9105181 0.2774123 0.9105181 0.2774123 0.0894819 -0.2774123
858 0.0827301 -0.2674013 0.9172699 0.2674013 0.9172699 0.2674013 0.0827301 -0.2674013
897 0.0764555 -0.2576053 0.9235445 0.2576053 0.9235445 0.2576053 0.0764555 -0.2576053
938 0.0706303 -0.2480378 0.9293697 0.2480378 0.9293697 0.2480378 0.0706303 -0.2480378
981 0.0652271 -0.2387097 0.9347729 0.2387097 0.9347729 0.2387097 0.0652271 -0.2387097
1026 0.0602195 -0.2296294 0.9397805 0.2296294 0.9397805 0.2296294 0.0602195 -0.2296294
1073 0.0555818 -0.2208031 0.9444182 0.2208031 0.9444182 0.2208031 0.0555818 -0.2208031
1122 0.0512895 -0.2122351 0.9487105 0.2122351 0.9487105 0.2122351 0.0512895 -0.2122351
1174 0.0473191 -0.2039278 0.9526809 0.2039278 0.9526809 0.2039278 0.0473191 -0.2039278
1227 0.0436483 -0.1958821 0.9563517 0.1958821 0.9563517 0.1958821 0.0436483 -0.1958821
1283 0.0402560 -0.1880976 0.9597440 0.1880976 0.9597440 0.1880976 0.0402560 -0.1880976
1342 0.0371222 -0.1805725 0.9628778 0.1805725 0.9628778 0.1805725 0.0371222 -0.1805725
1404 0.0342283 -0.1733043 0.9657717 0.1733043 0.9657717 0.1733043 0.0342283 -0.1733043
1468 0.0315566 -0.1662894 0.9684434 0.1662894 0.9684434 0.1662894 0.0315566 -0.1662894
1535 0.0290907 -0.1595236 0.9709093 0.1595236 0.9709093 0.1595236 0.0290907 -0.1595236
1606 0.0268152 -0.1530021 0.9731848 0.1530021 0.9731848 0.1530021 0.0268152 -0.1530021
1679 0.0247159 -0.1467195 0.9752841 0.1467195 0.9752841 0.1467195 0.0247159 -0.1467195
1756 0.0227795 -0.1406703 0.9772205 0.1406703 0.9772205 0.1406703 0.0227795 -0.1406703
1836 0.0209937 -0.1348485 0.9790063 0.1348485 0.9790063 0.1348485 0.0209937 -0.1348485
1920 0.0193470 -0.1292479 0.9806530 0.1292479 0.9806530 0.1292479 0.0193470 -0.1292479
2008 0.0178288 -0.1238623 0.9821712 0.1238623 0.9821712 0.1238623 0.0178288 -0.1238623
2100 0.0164294 -0.1186852 0.9835706 0.1186852 0.9835706 0.1186852 0.0164294 -0.1186852
2196 0.0151397 -0.1137103 0.9848603 0.1137103 0.9848603 0.1137103 0.0151397 -0.1137103
2297 0.0139512 -0.1089310 0.9860488 0.1089310 0.9860488 0.1089310 0.0139512 -0.1089310
2402 0.0128563 -0.1043411 0.9871437 0.1043411 0.9871437 0.1043411 0.0128563 -0.1043411
2512 0.0118478 -0.0999342 0.9881522 0.0999342 0.9881522 0.0999342 0.0118478 -0.0999342
2627 0.0109190 -0.0957042 0.9890810 0.0957042 0.9890810 0.0957042 0.0109190 -0.0957042
2748 0.0100639 -0.0916447 0.9899361 0.0916447 0.9899361 0.0916447 0.0100639 -0.0916447
2873 0.0092767 -0.0877500 0.9907233 0.0877500 0.9907233 0.0877500 0.0092767 -0.0877500
3005 0.0085522 -0.0840140 0.9914478 0.0840140 0.9914478 0.0840140 0.0085522 -0.0840140
3143 0.0078855 -0.0804310 0.9921145 0.0804310 0.9921145 0.0804310 0.0078855 -0.0804310
3287 0.0072723 -0.0769954 0.9927277 0.0769954 0.9927277 0.0769954 0.0072723 -0.0769954
3437 0.0067082 -0.0737018 0.9932918 0.0737018 0.9932918 0.0737018 0.0067082 -0.0737018
3594 0.0061895 -0.0705448 0.9938105 0.0705448 0.9938105 0.0705448 0.0061895 -0.0705448
3759 0.0057126 -0.0675193 0.9942874 0.0675193 0.9942874 0.0675193 0.0057126 -0.0675193
3931 0.0052743 -0.0646202 0.9947257 0.0646202 0.9947257 0.0646202 0.0052743 -0.0646202
4111 0.0048714 -0.0618427 0.9951286 0.0618427 0.9951286 0.0618427 0.0048714 -0.0618427
4299 0.0045011 -0.0591820 0.9954989 0.0591820 0.9954989 0.0591820 0.0045011 -0.0591820
4496 0.0041609 -0.0566336 0.9958391 0.0566336 0.9958391 0.0566336 0.0041609 -0.0566336
4702 0.0038483 -0.0541931 0.9961517 0.0541931 0.9961517 0.0541931 0.0038483 -0.0541931
4918 0.0035611 -0.0518562 0.9964389 0.0518562 0.9964389 0.0518562 0.0035611 -0.0518562
5143 0.0032972 -0.0496186 0.9967028 0.0496186 0.9967028 0.0496186 0.0032972 -0.0496186
5378 0.0030548 -0.0474766 0.9969452 0.0474766 0.9969452 0.0474766 0.0030548 -0.0474766
5625 0.0028320 -0.0454260 0.9971680 0.0454260 0.9971680 0.0454260 0.0028320 -0.0454260
5882 0.0026272 -0.0434633 0.9973728 0.0434633 0.9973728 0.0434633 0.0026272 -0.0434633
6151 0.0024390 -0.0415848 0.9975610 0.0415848 0.9975610 0.0415848 0.0024390 -0.0415848
6433 0.0022659 -0.0397871 0.9977341 0.0397871 0.9977341 0.0397871 0.0022659 -0.0397871
6728 0.0021068 -0.0380668 0.9978932 0.0380668 0.9978932 0.0380668 0.0021068 -0.0380668
7036 0.0019603 -0.0364207 0.9980397 0.0364207 0.9980397 0.0364207 0.0019603 -0.0364207
7358 0.0018255 -0.0348456 0.9981745 0.0348456 0.9981745 0.0348456 0.0018255 -0.0348456
7695 0.0017013 -0.0333386 0.9982987 0.0333386 0.9982987 0.0333386 0.0017013 -0.0333386
8047 0.0015868 -0.0318969 0.9984132 0.0318969 0.9984132 0.0318969 0.0015868 -0.0318969
8416 0.0014813 -0.0305175 0.9985187 0.0305175 0.9985187 0.0305175 0.0014813 -0.0305175
8801 0.0013838 -0.0291979 0.9986162 0.0291979 0.9986162 0.0291979 0.0013838 -0.0291979
9204 0.0012938 -0.0279356 0.9987062 0.0279356 0.9987062 0.0279356 0.0012938 -0.0279356
9626 0.0012105 -0.0267280 0.9987895 0.0267280 0.9987895 0.0267280 0.0012105 -0.0267280
10066 0.0011335 -0.0255728 0.9988665 0.0255728 0.9988665 0.0255728 0.0011335 -0.0255728
10527 0.0010621 -0.0244677 0.9989379 0.0244677 0.9989379 0.0244677 0.0010621 -0.0244677
11009 0.0009958 -0.0234105 0.9990042 0.0234105 0.9990042 0.0234105 0.0009958 -0.0234105
11514 0.0009343 -0.0223992 0.9990657 0.0223992 0.9990657 0.0223992 0.0009343 -0.0223992
12041 0.0008771 -0.0214317 0.9991229 0.0214317 0.9991229 0.0214317 0.0008771 -0.0214317
12592 0.0008239 -0.0205062 0.9991761 0.0205062 0.9991761 0.0205062 0.0008239 -0.0205062
13169 0.0007743 -0.0196208 0.9992257 0.0196208 0.9992257 0.0196208 0.0007743 -0.0196208
13772 0.0007280 -0.0187736 0.9992720 0.0187736 0.9992720 0.0187736 0.0007280 -0.0187736
14402 0.0006848 -0.0179632 0.9993152 0.0179632 0.9993152 0.0179632 0.0006848 -0.0179632
15062 0.0006444 -0.0171877 0.9993556 0.0171877 0.9993556 0.0171877 0.0006444 -0.0171877
15752 0.0006067 -0.0164458 0.9993933 0.0164458 0.9993933 0.0164458 0.0006067 -0.0164458
16473 0.0005713 -0.0157359 0.9994287 0.0157359 0.9994287 0.0157359 0.0005713 -0.0157359
17227 0.0005383 -0.0150566 0.9994617 0.0150566 0.9994617 0.0150566 0.0005383 -0.0150566
18016 0.0005073 -0.0144065 0.9994927 0.0144065 0.9994927 0.0144065 0.0005073 -0.0144065
18841 0.0004782 -0.0137845 0.9995218 0.0137845 0.9995218 0.0137845 0.0004782 -0.0137845
19704 0.0004510 -0.0131892 0.9995490 0.0131892 0.9995490 0.0131892 0.0004510 -0.0131892
20606 0.0004254 -0.0126195 0.9995746 0.0126195 0.9995746 0.0126195 0.0004254 -0.0126195
21550 0.0004015 -0.0120743 0.9995985 0.0120743 0.9995985 0.0120743 0.0004015 -0.0120743
22537 0.0003791 -0.0115525 0.9996209 0.0115525 0.9996209 0.0115525 0.0003791 -0.0115525
23569 0.0003581 -0.0110532 0.9996419 0.0110532 0.9996419 0.0110532 0.0003581 -0.0110532
24648 0.0003384 -0.0105753 0.9996616 0.0105753 0.9996616 0.0105753 0.0003384 -0.0105753
25777 0.0003200 -0.0101179 0.9996800 0.0101179 0.9996800 0.0101179 0.0003200 -0.0101179
26957 0.0003028 -0.0096802 0.9996972 0.0096802 0.9996972 0.0096802 0.0003028 -0.0096802
28191 0.0002867 -0.0092613 0.9997133 0.0092613 0.9997133 0.0092613 0.0002867 -0.0092613
29482 0.0002717 -0.0088604 0.9997283 0.0088604 0.9997283 0.0088604 0.0002717 -0.0088604
30832 0.0002576 -0.0084768 0.9997424 0.0084768 0.9997424 0.0084768 0.0002576 -0.0084768
32244 0.0002445 -0.0081096 0.9997555 0.0081096 0.9997555 0.0081096 0.0002445 -0.0081096
33721 0.0002323 -0.0077583 0.9997677 0.0077583 0.9997677 0.0077583 0.0002323 -0.0077583
35265 0.0002209 -0.0074221 0.9997791 0.0074221 0.9997791 0.0074221 0.0002209 -0.0074221
36880 0.0002102 -0.0071004 0.9997898 0.0071004 0.9997898 0.0071004 0.0002102 -0.0071004
38569 0.0002003 -0.0067926 0.9997997 0.0067926 0.9997997 0.0067926 0.0002003 -0.0067926
40335 0.0001911 -0.0064981 0.9998089 0.0064981 0.9998089 0.0064981 0.0001911 -0.0064981
42182 0.0001825 -0.0062163 0.9998175 0.0062163 0.9998175 0.0062163 0.0001825 -0.0062163
44113 0.0001745 -0.0059467 0.9998255 0.0059467 0.9998255 0.0059467 0.0001745 -0.0059467
46134 0.0001670 -0.0056888 0.9998330 0.0056888 0.9998330 0.0056888 0.0001670 -0.0056888
48246 0.0001600 -0.0054421 0.9998400 0.0054421 0.9998400 0.0054421 0.0001600 -0.0054421
50455 0.0001535 -0.0052060 0.9998465 0.0052060 0.9998465 0.0052060 0.0001535 -0.0052060
52766 0.0001474 -0.0049802 0.9998526 0.0049802 0.9998526 0.0049802 0.0001474 -0.0049802
55182 0.0001418 -0.0047642 0.9998582 0.0047642 0.9998582 0.0047642 0.0001418 -0.0047642
57709 0.0001364 -0.0045576 0.9998636 0.0045576 0.9998636 0.0045576 0.0001364 -0.0045576
60352 0.0001315 -0.0043600 0.9998685 0.0043600 0.9998685 0.0043600 0.0001315 -0.0043600
63115 0.0001268 -0.0041710 0.9998732 0.0041710 0.9998732 0.0041710 0.0001268 -0.0041710
66005 0.0001224 -0.0039902 0.9998776 0.0039902 0.9998776 0.0039902 0.0001224 -0.0039902
69028 0.0001182 -0.0038172 0.9998818 0.0038172 0.9998818 0.0038172 0.0001182 -0.0038172
72189 0.0001143 -0.0036518 0.9998857 0.0036518 0.9998857 0.0036518 0.0001143 -0.0036518
75495 0.0001106 -0.0034936 0.9998894 0.0034936 0.9998894 0.0034936 0.0001106 -0.0034936
78952 0.0001071 -0.0033422 0.9998929 0.0033422 0.9998929 0.0033422 0.0001071 -0.0033422
82567 0.0001038 -0.0031975 0.9998962 0.0031975 0.9998962 0.0031975 0.0001038 -0.0031975
86348 0.0001006 -0.0030590 0.9998994 0.0030590 0.9998994 0.0030590 0.0001006 -0.0030590
90302 0.0000975 -0.0029265 0.9999025 0.0029265 0.9999025 0.0029265 0.0000975 -0.0029265
94437 0.0000946 -0.0027998 0.9999054 0.0027998 0.9999054 0.0027998 0.0000946 -0.0027998
98762 0.0000918 -0.0026786 0.9999082 0.0026786 0.9999082 0.0026786 0.0000918 -0.0026786
103284 0.0000891 -0.0025627 0.9999109 0.0025627 0.9999109 0.0025627 0.0000891 -0.0025627
108014 0.0000865 -0.0024517 0.9999135 0.0024517 0.9999135 0.0024517 0.0000865 -0.0024517
112960 0.0000840 -0.0023456 0.9999160 0.0023456 0.9999160 0.0023456 0.0000840 -0.0023456
118133 0.0000816 -0.0022440 0.9999184 0.0022440 0.9999184 0.0022440 0.0000816 -0.0022440
123542 0.0000793 -0.0021468 0.9999207 0.0021468 0.9999207 0.0021468 0.0000793 -0.0021468
129199 0.0000770 -0.0020538 0.9999230 0.0020538 0.9999230 0.0020538 0.0000770 -0.0020538
135116 0.0000748 -0.0019648 0.9999252 0.0019648 0.9999252 0.0019648 0.0000748 -0.0019648
141303 0.0000727 -0.0018796 0.9999273 0.0018796 0.9999273 0.0018796 0.0000727 -0.0018796
147774 0.0000706 -0.0017980 0.9999294 0.0017980 0.9999294 0.0017980 0.0000706 -0.0017980
154540 0.0000687 -0.0017199 0.9999313 0.0017199 0.9999313 0.0017199 0.0000687 -0.0017199
161617 0.0000667 -0.0016452 0.9999333 0.0016452 0.9999333 0.0016452 0.0000667 -0.0016452
169018 0.0000649 -0.0015736 0.9999351 0.0015736 0.9999351 0.0015736 0.0000649 -0.0015736
176758 0.0000631 -0.0015051 0.9999369 0.0015051 0.9999369 0.0015051 0.0000631 -0.0015051
184852 0.0000614 -0.0014394 0.9999386 0.0014394 0.9999386 0.0014394 0.0000614 -0.0014394
193316 0.0000598 -0.0013766 0.9999402 0.0013766 0.9999402 0.0013766 0.0000598 -0.0013766
202169 0.0000582 -0.0013164 0.9999418 0.0013164 0.9999418 0.0013164 0.0000582 -0.0013164
211427 0.0000567 -0.0012587 0.9999433 0.0012587 0.9999433 0.0012587 0.0000567 -0.0012587
221108 0.0000553 -0.0012035 0.9999447 0.0012035 0.9999447 0.0012035 0.0000553 -0.0012035
231233 0.0000539 -0.0011506 0.9999461 0.0011506 0.9999461 0.0011506 0.0000539 -0.0011506
241822 0.0000527 -0.0010999 0.9999473 0.0010999 0.9999473 0.0010999 0.0000527 -0.0010999
252896 0.0000514 -0.0010514 0.9999486 0.0010514 0.9999486 0.0010514 0.0000514 -0.0010514
264476 0.0000503 -0.0010048 0.9999497 0.0010048 0.9999497 0.0010048 0.0000503 -0.0010048
276587 0.0000492 -0.0009603 0.9999508 0.0009603 0.9999508 0.0009603 0.0000492 -0.0009603
289253 0.0000482 -0.0009175 0.9999518 0.0009175 0.9999518 0.0009175 0.0000482 -0.0009175
302498 0.0000472 -0.0008766 0.9999528 0.0008766 0.9999528 0.0008766 0.0000472 -0.0008766
316350 0.0000463 -0.0008374 0.9999537 0.0008374 0.9999537 0.0008374 0.0000463 -0.0008374
330837 0.0000455 -0.0007998 0.9999545 0.0007998 0.9999545 0.0007998 0.0000455 -0.0007998
345986 0.0000447 -0.0007637 0.9999553 0.0007637 0.9999553 0.0007637 0.0000447 -0.0007637
361830 0.0000440 -0.0007292 0.9999560 0.0007292 0.9999560 0.0007292 0.0000440 -0.0007292
378399 0.0000433 -0.0006960 0.9999567 0.0006960 0.9999567 0.0006960 0.0000433 -0.0006960
395726 0.0000427 -0.0006643 0.9999573 0.0006643 0.9999573 0.0006643 0.0000427 -0.0006643
413847 0.0000421 -0.0006338 0.9999579 0.0006338 0.9999579 0.0006338 0.0000421 -0.0006338
432798 0.0000416 -0.0006046 0.9999584 0.0006046 0.9999584 0.0006046 0.0000416 -0.0006046
452617 0.0000411 -0.0005765 0.9999589 0.0005765 0.9999589 0.0005765 0.0000411 -0.0005765
473344 0.0000407 -0.0005496 0.9999593 0.0005496 0.9999593 0.0005496 0.0000407 -0.0005496
495019 0.0000403 -0.0005238 0.9999597 0.0005238 0.9999597 0.0005238 0.0000403 -0.0005238
517687 0.0000399 -0.0004990 0.9999601 0.0004990 0.9999601 0.0004990 0.0000399 -0.0004990
541393 0.0000396 -0.0004752 0.9999604 0.0004752 0.9999604 0.0004752 0.0000396 -0.0004752
566185 0.0000393 -0.0004523 0.9999607 0.0004523 0.9999607 0.0004523 0.0000393 -0.0004523
592111 0.0000391 -0.0004304 0.9999609 0.0004304 0.9999609 0.0004304 0.0000391 -0.0004304
619225 0.0000389 -0.0004093 0.9999611 0.0004093 0.9999611 0.0004093 0.0000389 -0.0004093
647581 0.0000387 -0.0003889 0.9999613 0.0003889 0.9999613 0.0003889 0.0000387 -0.0003889
677235 0.0000385 -0.0003694 0.9999615 0.0003694 0.9999615 0.0003694 0.0000385 -0.0003694
708247 0.0000384 -0.0003506 0.9999616 0.0003506 0.9999616 0.0003506 0.0000384 -0.0003506
740679 0.0000383 -0.0003325 0.9999617 0.0003325 0.9999617 0.0003325 0.0000383 -0.0003325
774597 0.0000383 -0.0003150 0.9999617 0.0003150 0.9999617 0.0003150 0.0000383 -0.0003150
810067 0.0000382 -0.0002982 0.9999618 0.0002982 0.9999618 0.0002982 0.0000382 -0.0002982
847162 0.0000382 -0.0002820 0.9999618 0.0002820 0.9999618 0.0002820 0.0000382 -0.0002820
885955 0.0000383 -0.0002663 0.9999617 0.0002663 0.9999617 0.0002663 0.0000383 -0.0002663
926525 0.0000383 -0.0002512 0.9999617 0.0002512 0.9999617 0.0002512 0.0000383 -0.0002512
968953 0.0000384 -0.0002366 0.9999616 0.0002366 0.9999616 0.0002366 0.0000384 -0.0002366
1013323 0.0000385 -0.0002224 0.9999615 0.0002224 0.9999615 0.0002224 0.0000385 -0.0002224
1059725 0.0000387 -0.0002087 0.9999613 0.0002087 0.9999613 0.0002087 0.0000387 -0.0002087
1108252 0.0000389 -0.0001954 0.9999611 0.0001954 0.9999611 0.0001954 0.0000389 -0.0001954
1159002 0.0000391 -0.0001825 0.9999609 0.0001825 0.9999609 0.0001825 0.0000391 -0.0001825
1212075 0.0000394 -0.0001700 0.9999606 0.0001700 0.9999606 0.0001700 0.0000394 -0.0001700
1267578 0.0000397 -0.0001578 0.9999603 0.0001578 0.9999603 0.0001578 0.0000397 -0.0001578
1325623 0.0000400 -0.0001459 0.9999600 0.0001459 0.9999600 0.0001459 0.0000400 -0.0001459
1386327 0.0000404 -0.0001343 0.9999596 0.0001343 0.9999596 0.0001343 0.0000404 -0.0001343
1449809 0.0000408 -0.0001230 0.9999592 0.0001230 0.9999592 0.0001230 0.0000408 -0.0001230
1516199 0.0000413 -0.0001119 0.9999587 0.0001119 0.9999587 0.0001119 0.0000413 -0.0001119
1585629 0.0000419 -0.0001011 0.9999581 0.0001011 0.9999581 0.0001011 0.0000419 -0.0001011
1658239 0.0000425 -0.0000904 0.9999575 0.0000904 0.9999575 0.0000904 0.0000425 -0.0000904
1734173 0.0000432 -0.0000800 0.9999568 0.0000800 0.9999568 0.0000800 0.0000432 -0.0000800
1813585 0.0000440 -0.0000697 0.9999560 0.0000697 0.9999560 0.0000697 0.0000440 -0.0000697
1896632 0.0000448 -0.0000595 0.9999552 0.0000595 0.9999552 0.0000595 0.0000448 -0.0000595
1983483 0.0000457 -0.0000495 0.9999543 0.0000495 0.9999543 0.0000495 0.0000457 -0.0000495
2074311 0.0000468 -0.0000396 0.9999532 0.0000396 0.9999532 0.0000396 0.0000468 -0.0000396
2169299 0.0000479 -0.0000297 0.9999521 0.0000297 0.9999521 0.0000297 0.0000479 -0.0000297
