!Murata Part Number: GRM188B30J226MEA0
!These Parameters are Measured in Series Mode Connection
!       o--ll--o
!Port1            Port2
!       o------o
!Operation Temp=25[C], DC Bias Voltage=0[V]
!Freq. Start=100[Hz] Stop=6000000000[Hz] 401[Steps]
# Hz S RI R 50
!Freq.(Hz) S11(Real) S11(Imag) S21(Real) S21(Imag) S12(Real) S12(Imag) S22(Real) S22(Imag)
100 0.5670017 -0.4889176 0.4329983 0.4889176 0.4329983 0.4889176 0.5670017 -0.4889176
105 0.5453747 -0.4913792 0.4546253 0.4913792 0.4546253 0.4913792 0.5453747 -0.4913792
109 0.5235726 -0.4929001 0.4764274 0.4929001 0.4764274 0.4929001 0.5235726 -0.4929001
114 0.5016786 -0.4934657 0.4983214 0.4934657 0.4983214 0.4934657 0.5016786 -0.4934657
120 0.4797777 -0.4930708 0.5202223 0.4930708 0.5202223 0.4930708 0.4797777 -0.4930708
125 0.4579546 -0.4917196 0.5420454 0.4917196 0.5420454 0.4917196 0.4579546 -0.4917196
131 0.4362927 -0.4894257 0.5637073 0.4894257 0.5637073 0.4894257 0.4362927 -0.4894257
137 0.4148730 -0.4862112 0.5851270 0.4862112 0.5851270 0.4862112 0.4148730 -0.4862112
143 0.3937725 -0.4821071 0.6062275 0.4821071 0.6062275 0.4821071 0.3937725 -0.4821071
150 0.3730635 -0.4771516 0.6269365 0.4771516 0.6269365 0.4771516 0.3730635 -0.4771516
156 0.3528124 -0.4713900 0.6471876 0.4713900 0.6471876 0.4713900 0.3528124 -0.4713900
164 0.3330794 -0.4648732 0.6669206 0.4648732 0.6669206 0.4648732 0.3330794 -0.4648732
171 0.3139175 -0.4576569 0.6860825 0.4576569 0.6860825 0.4576569 0.3139175 -0.4576569
179 0.2953724 -0.4498005 0.7046276 0.4498005 0.7046276 0.4498005 0.2953724 -0.4498005
187 0.2774823 -0.4413659 0.7225177 0.4413659 0.7225177 0.4413659 0.2774823 -0.4413659
196 0.2602777 -0.4324166 0.7397223 0.4324166 0.7397223 0.4324166 0.2602777 -0.4324166
205 0.2437819 -0.4230166 0.7562181 0.4230166 0.7562181 0.4230166 0.2437819 -0.4230166
214 0.2280112 -0.4132295 0.7719888 0.4132295 0.7719888 0.4132295 0.2280112 -0.4132295
224 0.2129750 -0.4031177 0.7870250 0.4031177 0.7870250 0.4031177 0.2129750 -0.4031177
234 0.1986767 -0.3927417 0.8013233 0.3927417 0.8013233 0.3927417 0.1986767 -0.3927417
245 0.1851140 -0.3821597 0.8148860 0.3821597 0.8148860 0.3821597 0.1851140 -0.3821597
256 0.1722794 -0.3714266 0.8277206 0.3714266 0.8277206 0.3714266 0.1722794 -0.3714266
268 0.1601612 -0.3605943 0.8398388 0.3605943 0.8398388 0.3605943 0.1601612 -0.3605943
280 0.1487437 -0.3497111 0.8512563 0.3497111 0.8512563 0.3497111 0.1487437 -0.3497111
293 0.1380080 -0.3388212 0.8619920 0.3388212 0.8619920 0.3388212 0.1380080 -0.3388212
306 0.1279325 -0.3279655 0.8720675 0.3279655 0.8720675 0.3279655 0.1279325 -0.3279655
320 0.1184934 -0.3171805 0.8815066 0.3171805 0.8815066 0.3171805 0.1184934 -0.3171805
335 0.1096655 -0.3064994 0.8903345 0.3064994 0.8903345 0.3064994 0.1096655 -0.3064994
350 0.1014221 -0.2959512 0.8985779 0.2959512 0.8985779 0.2959512 0.1014221 -0.2959512
366 0.0937360 -0.2855618 0.9062640 0.2855618 0.9062640 0.2855618 0.0937360 -0.2855618
383 0.0865792 -0.2753533 0.9134208 0.2753533 0.9134208 0.2753533 0.0865792 -0.2753533
401 0.0799239 -0.2653448 0.9200761 0.2653448 0.9200761 0.2653448 0.0799239 -0.2653448
419 0.0737424 -0.2555524 0.9262576 0.2555524 0.9262576 0.2555524 0.0737424 -0.2555524
438 0.0680074 -0.2459893 0.9319926 0.2459893 0.9319926 0.2459893 0.0680074 -0.2459893
458 0.0626921 -0.2366663 0.9373079 0.2366663 0.9373079 0.2366663 0.0626921 -0.2366663
479 0.0577704 -0.2275917 0.9422296 0.2275917 0.9422296 0.2275917 0.0577704 -0.2275917
501 0.0532173 -0.2187719 0.9467827 0.2187719 0.9467827 0.2187719 0.0532173 -0.2187719
524 0.0490085 -0.2102110 0.9509915 0.2102110 0.9509915 0.2102110 0.0490085 -0.2102110
548 0.0451209 -0.2019118 0.9548791 0.2019118 0.9548791 0.2019118 0.0451209 -0.2019118
573 0.0415324 -0.1938753 0.9584676 0.1938753 0.9584676 0.1938753 0.0415324 -0.1938753
600 0.0382218 -0.1861014 0.9617782 0.1861014 0.9617782 0.1861014 0.0382218 -0.1861014
627 0.0351695 -0.1785886 0.9648305 0.1785886 0.9648305 0.1785886 0.0351695 -0.1785886
656 0.0323566 -0.1713345 0.9676434 0.1713345 0.9676434 0.1713345 0.0323566 -0.1713345
686 0.0297655 -0.1643358 0.9702345 0.1643358 0.9702345 0.1643358 0.0297655 -0.1643358
717 0.0273795 -0.1575884 0.9726205 0.1575884 0.9726205 0.1575884 0.0273795 -0.1575884
750 0.0251832 -0.1510877 0.9748168 0.1510877 0.9748168 0.1510877 0.0251832 -0.1510877
784 0.0231621 -0.1448285 0.9768379 0.1448285 0.9768379 0.1448285 0.0231621 -0.1448285
820 0.0213026 -0.1388052 0.9786974 0.1388052 0.9786974 0.1388052 0.0213026 -0.1388052
858 0.0195921 -0.1330119 0.9804079 0.1330119 0.9804079 0.1330119 0.0195921 -0.1330119
897 0.0180189 -0.1274424 0.9819811 0.1274424 0.9819811 0.1274424 0.0180189 -0.1274424
938 0.0165722 -0.1220902 0.9834278 0.1220902 0.9834278 0.1220902 0.0165722 -0.1220902
981 0.0152419 -0.1169488 0.9847581 0.1169488 0.9847581 0.1169488 0.0152419 -0.1169488
1026 0.0140188 -0.1120118 0.9859812 0.1120118 0.9859812 0.1120118 0.0140188 -0.1120118
1073 0.0128942 -0.1072723 0.9871058 0.1072723 0.9871058 0.1072723 0.0128942 -0.1072723
1122 0.0118603 -0.1027239 0.9881397 0.1027239 0.9881397 0.1027239 0.0118603 -0.1027239
1174 0.0109097 -0.0983598 0.9890903 0.0983598 0.9890903 0.0983598 0.0109097 -0.0983598
1227 0.0100357 -0.0941738 0.9899643 0.0941738 0.9899643 0.0941738 0.0100357 -0.0941738
1283 0.0092321 -0.0901592 0.9907679 0.0901592 0.9907679 0.0901592 0.0092321 -0.0901592
1342 0.0084933 -0.0863098 0.9915067 0.0863098 0.9915067 0.0863098 0.0084933 -0.0863098
1404 0.0078140 -0.0826196 0.9921860 0.0826196 0.9921860 0.0826196 0.0078140 -0.0826196
1468 0.0071894 -0.0790824 0.9928106 0.0790824 0.9928106 0.0790824 0.0071894 -0.0790824
1535 0.0066151 -0.0756924 0.9933849 0.0756924 0.9933849 0.0756924 0.0066151 -0.0756924
1606 0.0060871 -0.0724439 0.9939129 0.0724439 0.9939129 0.0724439 0.0060871 -0.0724439
1679 0.0056016 -0.0693314 0.9943984 0.0693314 0.9943984 0.0693314 0.0056016 -0.0693314
1756 0.0051552 -0.0663495 0.9948448 0.0663495 0.9948448 0.0663495 0.0051552 -0.0663495
1836 0.0047448 -0.0634931 0.9952552 0.0634931 0.9952552 0.0634931 0.0047448 -0.0634931
1920 0.0043676 -0.0607572 0.9956324 0.0607572 0.9956324 0.0607572 0.0043676 -0.0607572
2008 0.0040208 -0.0581369 0.9959792 0.0581369 0.9959792 0.0581369 0.0040208 -0.0581369
2100 0.0037020 -0.0556275 0.9962980 0.0556275 0.9962980 0.0556275 0.0037020 -0.0556275
2196 0.0034089 -0.0532247 0.9965911 0.0532247 0.9965911 0.0532247 0.0034089 -0.0532247
2297 0.0031396 -0.0509240 0.9968604 0.0509240 0.9968604 0.0509240 0.0031396 -0.0509240
2402 0.0028922 -0.0487212 0.9971078 0.0487212 0.9971078 0.0487212 0.0028922 -0.0487212
2512 0.0026647 -0.0466125 0.9973353 0.0466125 0.9973353 0.0466125 0.0026647 -0.0466125
2627 0.0024558 -0.0445938 0.9975442 0.0445938 0.9975442 0.0445938 0.0024558 -0.0445938
2748 0.0022638 -0.0426615 0.9977362 0.0426615 0.9977362 0.0426615 0.0022638 -0.0426615
2873 0.0020874 -0.0408120 0.9979126 0.0408120 0.9979126 0.0408120 0.0020874 -0.0408120
3005 0.0019253 -0.0390419 0.9980747 0.0390419 0.9980747 0.0390419 0.0019253 -0.0390419
3143 0.0017765 -0.0373479 0.9982235 0.0373479 0.9982235 0.0373479 0.0017765 -0.0373479
3287 0.0016397 -0.0357267 0.9983603 0.0357267 0.9983603 0.0357267 0.0016397 -0.0357267
3437 0.0015140 -0.0341754 0.9984860 0.0341754 0.9984860 0.0341754 0.0015140 -0.0341754
3594 0.0013986 -0.0326909 0.9986014 0.0326909 0.9986014 0.0326909 0.0013986 -0.0326909
3759 0.0012925 -0.0312706 0.9987075 0.0312706 0.9987075 0.0312706 0.0012925 -0.0312706
3931 0.0011950 -0.0299116 0.9988050 0.0299116 0.9988050 0.0299116 0.0011950 -0.0299116
4111 0.0011055 -0.0286114 0.9988945 0.0286114 0.9988945 0.0286114 0.0011055 -0.0286114
4299 0.0010231 -0.0273674 0.9989769 0.0273674 0.9989769 0.0273674 0.0010231 -0.0273674
4496 0.0009474 -0.0261773 0.9990526 0.0261773 0.9990526 0.0261773 0.0009474 -0.0261773
4702 0.0008778 -0.0250388 0.9991222 0.0250388 0.9991222 0.0250388 0.0008778 -0.0250388
4918 0.0008137 -0.0239496 0.9991863 0.0239496 0.9991863 0.0239496 0.0008137 -0.0239496
5143 0.0007548 -0.0229077 0.9992452 0.0229077 0.9992452 0.0229077 0.0007548 -0.0229077
5378 0.0007006 -0.0219111 0.9992994 0.0219111 0.9992994 0.0219111 0.0007006 -0.0219111
5625 0.0006507 -0.0209577 0.9993493 0.0209577 0.9993493 0.0209577 0.0006507 -0.0209577
5882 0.0006047 -0.0200457 0.9993953 0.0200457 0.9993953 0.0200457 0.0006047 -0.0200457
6151 0.0005623 -0.0191733 0.9994377 0.0191733 0.9994377 0.0191733 0.0005623 -0.0191733
6433 0.0005233 -0.0183389 0.9994767 0.0183389 0.9994767 0.0183389 0.0005233 -0.0183389
6728 0.0004873 -0.0175407 0.9995127 0.0175407 0.9995127 0.0175407 0.0004873 -0.0175407
7036 0.0004541 -0.0167772 0.9995459 0.0167772 0.9995459 0.0167772 0.0004541 -0.0167772
7358 0.0004235 -0.0160469 0.9995765 0.0160469 0.9995765 0.0160469 0.0004235 -0.0160469
7695 0.0003952 -0.0153483 0.9996048 0.0153483 0.9996048 0.0153483 0.0003952 -0.0153483
8047 0.0003691 -0.0146802 0.9996309 0.0146802 0.9996309 0.0146802 0.0003691 -0.0146802
8416 0.0003450 -0.0140411 0.9996550 0.0140411 0.9996550 0.0140411 0.0003450 -0.0140411
8801 0.0003227 -0.0134298 0.9996773 0.0134298 0.9996773 0.0134298 0.0003227 -0.0134298
9204 0.0003021 -0.0128451 0.9996979 0.0128451 0.9996979 0.0128451 0.0003021 -0.0128451
9626 0.0002831 -0.0122858 0.9997169 0.0122858 0.9997169 0.0122858 0.0002831 -0.0122858
10066 0.0002655 -0.0117509 0.9997345 0.0117509 0.9997345 0.0117509 0.0002655 -0.0117509
10527 0.0002492 -0.0112392 0.9997508 0.0112392 0.9997508 0.0112392 0.0002492 -0.0112392
11009 0.0002341 -0.0107498 0.9997659 0.0107498 0.9997659 0.0107498 0.0002341 -0.0107498
11514 0.0002201 -0.0102817 0.9997799 0.0102817 0.9997799 0.0102817 0.0002201 -0.0102817
12041 0.0002072 -0.0098340 0.9997928 0.0098340 0.9997928 0.0098340 0.0002072 -0.0098340
12592 0.0001952 -0.0094057 0.9998048 0.0094057 0.9998048 0.0094057 0.0001952 -0.0094057
13169 0.0001840 -0.0089961 0.9998160 0.0089961 0.9998160 0.0089961 0.0001840 -0.0089961
13772 0.0001737 -0.0086044 0.9998263 0.0086044 0.9998263 0.0086044 0.0001737 -0.0086044
14402 0.0001641 -0.0082296 0.9998359 0.0082296 0.9998359 0.0082296 0.0001641 -0.0082296
15062 0.0001552 -0.0078712 0.9998448 0.0078712 0.9998448 0.0078712 0.0001552 -0.0078712
15752 0.0001469 -0.0075284 0.9998531 0.0075284 0.9998531 0.0075284 0.0001469 -0.0075284
16473 0.0001392 -0.0072005 0.9998608 0.0072005 0.9998608 0.0072005 0.0001392 -0.0072005
17227 0.0001320 -0.0068869 0.9998680 0.0068869 0.9998680 0.0068869 0.0001320 -0.0068869
18016 0.0001254 -0.0065869 0.9998746 0.0065869 0.9998746 0.0065869 0.0001254 -0.0065869
18841 0.0001192 -0.0063000 0.9998808 0.0063000 0.9998808 0.0063000 0.0001192 -0.0063000
19704 0.0001134 -0.0060256 0.9998866 0.0060256 0.9998866 0.0060256 0.0001134 -0.0060256
20606 0.0001080 -0.0057631 0.9998920 0.0057631 0.9998920 0.0057631 0.0001080 -0.0057631
21550 0.0001029 -0.0055121 0.9998971 0.0055121 0.9998971 0.0055121 0.0001029 -0.0055121
22537 0.0000982 -0.0052719 0.9999018 0.0052719 0.9999018 0.0052719 0.0000982 -0.0052719
23569 0.0000938 -0.0050422 0.9999062 0.0050422 0.9999062 0.0050422 0.0000938 -0.0050422
24648 0.0000897 -0.0048225 0.9999103 0.0048225 0.9999103 0.0048225 0.0000897 -0.0048225
25777 0.0000859 -0.0046123 0.9999141 0.0046123 0.9999141 0.0046123 0.0000859 -0.0046123
26957 0.0000823 -0.0044113 0.9999177 0.0044113 0.9999177 0.0044113 0.0000823 -0.0044113
28191 0.0000790 -0.0042191 0.9999210 0.0042191 0.9999210 0.0042191 0.0000790 -0.0042191
29482 0.0000759 -0.0040351 0.9999241 0.0040351 0.9999241 0.0040351 0.0000759 -0.0040351
30832 0.0000730 -0.0038592 0.9999270 0.0038592 0.9999270 0.0038592 0.0000730 -0.0038592
32244 0.0000702 -0.0036910 0.9999298 0.0036910 0.9999298 0.0036910 0.0000702 -0.0036910
33721 0.0000677 -0.0035300 0.9999323 0.0035300 0.9999323 0.0035300 0.0000677 -0.0035300
35265 0.0000653 -0.0033761 0.9999347 0.0033761 0.9999347 0.0033761 0.0000653 -0.0033761
36880 0.0000631 -0.0032288 0.9999369 0.0032288 0.9999369 0.0032288 0.0000631 -0.0032288
38569 0.0000610 -0.0030880 0.9999390 0.0030880 0.9999390 0.0030880 0.0000610 -0.0030880
40335 0.0000591 -0.0029533 0.9999409 0.0029533 0.9999409 0.0029533 0.0000591 -0.0029533
42182 0.0000573 -0.0028244 0.9999427 0.0028244 0.9999427 0.0028244 0.0000573 -0.0028244
44113 0.0000556 -0.0027011 0.9999444 0.0027011 0.9999444 0.0027011 0.0000556 -0.0027011
46134 0.0000540 -0.0025832 0.9999460 0.0025832 0.9999460 0.0025832 0.0000540 -0.0025832
48246 0.0000526 -0.0024705 0.9999474 0.0024705 0.9999474 0.0024705 0.0000526 -0.0024705
50455 0.0000512 -0.0023626 0.9999488 0.0023626 0.9999488 0.0023626 0.0000512 -0.0023626
52766 0.0000499 -0.0022595 0.9999501 0.0022595 0.9999501 0.0022595 0.0000499 -0.0022595
55182 0.0000487 -0.0021608 0.9999513 0.0021608 0.9999513 0.0021608 0.0000487 -0.0021608
57709 0.0000475 -0.0020664 0.9999525 0.0020664 0.9999525 0.0020664 0.0000475 -0.0020664
60352 0.0000465 -0.0019762 0.9999535 0.0019762 0.9999535 0.0019762 0.0000465 -0.0019762
63115 0.0000455 -0.0018898 0.9999545 0.0018898 0.9999545 0.0018898 0.0000455 -0.0018898
66005 0.0000445 -0.0018073 0.9999555 0.0018073 0.9999555 0.0018073 0.0000445 -0.0018073
69028 0.0000436 -0.0017283 0.9999564 0.0017283 0.9999564 0.0017283 0.0000436 -0.0017283
72189 0.0000428 -0.0016527 0.9999572 0.0016527 0.9999572 0.0016527 0.0000428 -0.0016527
75495 0.0000420 -0.0015805 0.9999580 0.0015805 0.9999580 0.0015805 0.0000420 -0.0015805
78952 0.0000412 -0.0015113 0.9999588 0.0015113 0.9999588 0.0015113 0.0000412 -0.0015113
82567 0.0000405 -0.0014452 0.9999595 0.0014452 0.9999595 0.0014452 0.0000405 -0.0014452
86348 0.0000398 -0.0013820 0.9999602 0.0013820 0.9999602 0.0013820 0.0000398 -0.0013820
90302 0.0000392 -0.0013215 0.9999608 0.0013215 0.9999608 0.0013215 0.0000392 -0.0013215
94437 0.0000385 -0.0012636 0.9999615 0.0012636 0.9999615 0.0012636 0.0000385 -0.0012636
98762 0.0000379 -0.0012082 0.9999621 0.0012082 0.9999621 0.0012082 0.0000379 -0.0012082
103284 0.0000374 -0.0011552 0.9999626 0.0011552 0.9999626 0.0011552 0.0000374 -0.0011552
108014 0.0000368 -0.0011045 0.9999632 0.0011045 0.9999632 0.0011045 0.0000368 -0.0011045
112960 0.0000363 -0.0010560 0.9999637 0.0010560 0.9999637 0.0010560 0.0000363 -0.0010560
118133 0.0000358 -0.0010096 0.9999642 0.0010096 0.9999642 0.0010096 0.0000358 -0.0010096
123542 0.0000353 -0.0009652 0.9999647 0.0009652 0.9999647 0.0009652 0.0000353 -0.0009652
129199 0.0000348 -0.0009227 0.9999652 0.0009227 0.9999652 0.0009227 0.0000348 -0.0009227
135116 0.0000344 -0.0008820 0.9999656 0.0008820 0.9999656 0.0008820 0.0000344 -0.0008820
141303 0.0000339 -0.0008431 0.9999661 0.0008431 0.9999661 0.0008431 0.0000339 -0.0008431
147774 0.0000335 -0.0008058 0.9999665 0.0008058 0.9999665 0.0008058 0.0000335 -0.0008058
154540 0.0000331 -0.0007701 0.9999669 0.0007701 0.9999669 0.0007701 0.0000331 -0.0007701
161617 0.0000327 -0.0007359 0.9999673 0.0007359 0.9999673 0.0007359 0.0000327 -0.0007359
169018 0.0000324 -0.0007032 0.9999676 0.0007032 0.9999676 0.0007032 0.0000324 -0.0007032
176758 0.0000320 -0.0006719 0.9999680 0.0006719 0.9999680 0.0006719 0.0000320 -0.0006719
184852 0.0000317 -0.0006419 0.9999683 0.0006419 0.9999683 0.0006419 0.0000317 -0.0006419
193316 0.0000314 -0.0006132 0.9999686 0.0006132 0.9999686 0.0006132 0.0000314 -0.0006132
202169 0.0000311 -0.0005857 0.9999689 0.0005857 0.9999689 0.0005857 0.0000311 -0.0005857
211427 0.0000308 -0.0005593 0.9999692 0.0005593 0.9999692 0.0005593 0.0000308 -0.0005593
221108 0.0000306 -0.0005340 0.9999694 0.0005340 0.9999694 0.0005340 0.0000306 -0.0005340
231233 0.0000303 -0.0005098 0.9999697 0.0005098 0.9999697 0.0005098 0.0000303 -0.0005098
241822 0.0000301 -0.0004866 0.9999699 0.0004866 0.9999699 0.0004866 0.0000301 -0.0004866
252896 0.0000299 -0.0004644 0.9999701 0.0004644 0.9999701 0.0004644 0.0000299 -0.0004644
264476 0.0000297 -0.0004431 0.9999703 0.0004431 0.9999703 0.0004431 0.0000297 -0.0004431
276587 0.0000295 -0.0004226 0.9999705 0.0004226 0.9999705 0.0004226 0.0000295 -0.0004226
289253 0.0000293 -0.0004030 0.9999707 0.0004030 0.9999707 0.0004030 0.0000293 -0.0004030
302498 0.0000292 -0.0003842 0.9999708 0.0003842 0.9999708 0.0003842 0.0000292 -0.0003842
316350 0.0000291 -0.0003661 0.9999709 0.0003661 0.9999709 0.0003661 0.0000291 -0.0003661
330837 0.0000289 -0.0003488 0.9999711 0.0003488 0.9999711 0.0003488 0.0000289 -0.0003488
345986 0.0000288 -0.0003322 0.9999712 0.0003322 0.9999712 0.0003322 0.0000288 -0.0003322
361830 0.0000288 -0.0003162 0.9999712 0.0003162 0.9999712 0.0003162 0.0000288 -0.0003162
378399 0.0000287 -0.0003009 0.9999713 0.0003009 0.9999713 0.0003009 0.0000287 -0.0003009
395726 0.0000286 -0.0002861 0.9999714 0.0002861 0.9999714 0.0002861 0.0000286 -0.0002861
413847 0.0000286 -0.0002719 0.9999714 0.0002719 0.9999714 0.0002719 0.0000286 -0.0002719
432798 0.0000286 -0.0002583 0.9999714 0.0002583 0.9999714 0.0002583 0.0000286 -0.0002583
452617 0.0000286 -0.0002452 0.9999714 0.0002452 0.9999714 0.0002452 0.0000286 -0.0002452
473344 0.0000286 -0.0002325 0.9999714 0.0002325 0.9999714 0.0002325 0.0000286 -0.0002325
495019 0.0000286 -0.0002203 0.9999714 0.0002203 0.9999714 0.0002203 0.0000286 -0.0002203
517687 0.0000286 -0.0002086 0.9999714 0.0002086 0.9999714 0.0002086 0.0000286 -0.0002086
541393 0.0000287 -0.0001973 0.9999713 0.0001973 0.9999713 0.0001973 0.0000287 -0.0001973
566185 0.0000287 -0.0001864 0.9999713 0.0001864 0.9999713 0.0001864 0.0000287 -0.0001864
592111 0.0000288 -0.0001758 0.9999712 0.0001758 0.9999712 0.0001758 0.0000288 -0.0001758
619225 0.0000289 -0.0001656 0.9999711 0.0001656 0.9999711 0.0001656 0.0000289 -0.0001656
647581 0.0000291 -0.0001557 0.9999709 0.0001557 0.9999709 0.0001557 0.0000291 -0.0001557
677235 0.0000292 -0.0001462 0.9999708 0.0001462 0.9999708 0.0001462 0.0000292 -0.0001462
708247 0.0000294 -0.0001369 0.9999706 0.0001369 0.9999706 0.0001369 0.0000294 -0.0001369
740679 0.0000296 -0.0001279 0.9999704 0.0001279 0.9999704 0.0001279 0.0000296 -0.0001279
774597 0.0000298 -0.0001191 0.9999702 0.0001191 0.9999702 0.0001191 0.0000298 -0.0001191
810067 0.0000301 -0.0001106 0.9999699 0.0001106 0.9999699 0.0001106 0.0000301 -0.0001106
847162 0.0000303 -0.0001024 0.9999697 0.0001024 0.9999697 0.0001024 0.0000303 -0.0001024
885955 0.0000307 -0.0000943 0.9999693 0.0000943 0.9999693 0.0000943 0.0000307 -0.0000943
926525 0.0000310 -0.0000864 0.9999690 0.0000864 0.9999690 0.0000864 0.0000310 -0.0000864
968953 0.0000314 -0.0000787 0.9999686 0.0000787 0.9999686 0.0000787 0.0000314 -0.0000787
1013323 0.0000318 -0.0000711 0.9999682 0.0000711 0.9999682 0.0000711 0.0000318 -0.0000711
1059725 0.0000323 -0.0000637 0.9999677 0.0000637 0.9999677 0.0000637 0.0000323 -0.0000637
1108252 0.0000329 -0.0000564 0.9999671 0.0000564 0.9999671 0.0000564 0.0000329 -0.0000564
1159002 0.0000335 -0.0000492 0.9999665 0.0000492 0.9999665 0.0000492 0.0000335 -0.0000492
1212075 0.0000341 -0.0000422 0.9999659 0.0000422 0.9999659 0.0000422 0.0000341 -0.0000422
1267578 0.0000349 -0.0000352 0.9999651 0.0000352 0.9999651 0.0000352 0.0000349 -0.0000352
1325623 0.0000357 -0.0000283 0.9999643 0.0000283 0.9999643 0.0000283 0.0000357 -0.0000283
1386327 0.0000367 -0.0000214 0.9999633 0.0000214 0.9999633 0.0000214 0.0000367 -0.0000214
1449809 0.0000377 -0.0000146 0.9999623 0.0000146 0.9999623 0.0000146 0.0000377 -0.0000146
1516199 0.0000389 -0.0000078 0.9999611 0.0000078 0.9999611 0.0000078 0.0000389 -0.0000078
1585629 0.0000402 -0.0000011 0.9999598 0.0000011 0.9999598 0.0000011 0.0000402 -0.0000011
1658239 0.0000418 0.0000056 0.9999582 -0.0000056 0.9999582 -0.0000056 0.0000418 0.0000056
1734173 0.0000435 0.0000123 0.9999565 -0.0000123 0.9999565 -0.0000123 0.0000435 0.0000123
1813585 0.0000455 0.0000190 0.9999545 -0.0000190 0.9999545 -0.0000190 0.0000455 0.0000190
1896632 0.0000478 0.0000256 0.9999522 -0.0000256 0.9999522 -0.0000256 0.0000478 0.0000256
1983483 0.0000504 0.0000322 0.9999496 -0.0000322 0.9999496 -0.0000322 0.0000504 0.0000322
2074311 0.0000534 0.0000385 0.9999466 -0.0000385 0.9999466 -0.0000385 0.0000534 0.0000385
2169299 0.0000569 0.0000446 0.9999431 -0.0000446 0.9999431 -0.0000446 0.0000569 0.0000446
