!Murata Part Number: GRM219D80E476ME44
!These Parameters are Measured in Series Mode Connection
!       o--ll--o
!Port1            Port2
!       o------o
!Operation Temp=25[C], DC Bias Voltage=0[V]
!Freq. Start=100[Hz] Stop=6000000000[Hz] 401[Steps]
# Hz S RI R 50
!Freq.(Hz) S11(Real) S11(Imag) S21(Real) S21(Imag) S12(Real) S12(Imag) S22(Real) S22(Imag)
100 0.1751816 -0.3738117 0.8248184 0.3738117 0.8248184 0.3738117 0.1751816 -0.3738117
105 0.1629961 -0.3629653 0.8370039 0.3629653 0.8370039 0.3629653 0.1629961 -0.3629653
109 0.1515115 -0.3520725 0.8484885 0.3520725 0.8484885 0.3520725 0.1515115 -0.3520725
114 0.1407078 -0.3411769 0.8592922 0.3411769 0.8592922 0.3411769 0.1407078 -0.3411769
120 0.1305626 -0.3303187 0.8694374 0.3303187 0.8694374 0.3303187 0.1305626 -0.3303187
125 0.1210513 -0.3195336 0.8789487 0.3195336 0.8789487 0.3195336 0.1210513 -0.3195336
131 0.1121481 -0.3088538 0.8878519 0.3088538 0.8878519 0.3088538 0.1121481 -0.3088538
137 0.1038260 -0.2983075 0.8961740 0.2983075 0.8961740 0.2983075 0.1038260 -0.2983075
143 0.0960577 -0.2879194 0.9039423 0.2879194 0.9039423 0.2879194 0.0960577 -0.2879194
150 0.0888155 -0.2777108 0.9111845 0.2777108 0.9111845 0.2777108 0.0888155 -0.2777108
156 0.0820717 -0.2677001 0.9179283 0.2677001 0.9179283 0.2677001 0.0820717 -0.2677001
164 0.0757990 -0.2579025 0.9242010 0.2579025 0.9242010 0.2579025 0.0757990 -0.2579025
171 0.0699707 -0.2483307 0.9300293 0.2483307 0.9300293 0.2483307 0.0699707 -0.2483307
179 0.0645605 -0.2389950 0.9354395 0.2389950 0.9354395 0.2389950 0.0645605 -0.2389950
187 0.0595431 -0.2299033 0.9404569 0.2299033 0.9404569 0.2299033 0.0595431 -0.2299033
196 0.0548940 -0.2210617 0.9451060 0.2210617 0.9451060 0.2210617 0.0548940 -0.2210617
205 0.0505897 -0.2124744 0.9494103 0.2124744 0.9494103 0.2124744 0.0505897 -0.2124744
214 0.0466078 -0.2041442 0.9533922 0.2041442 0.9533922 0.2041442 0.0466078 -0.2041442
224 0.0429267 -0.1960721 0.9570733 0.1960721 0.9570733 0.1960721 0.0429267 -0.1960721
234 0.0395260 -0.1882583 0.9604740 0.1882583 0.9604740 0.1882583 0.0395260 -0.1882583
245 0.0363864 -0.1807016 0.9636136 0.1807016 0.9636136 0.1807016 0.0363864 -0.1807016
256 0.0334896 -0.1734000 0.9665104 0.1734000 0.9665104 0.1734000 0.0334896 -0.1734000
268 0.0308183 -0.1663506 0.9691817 0.1663506 0.9691817 0.1663506 0.0308183 -0.1663506
280 0.0283562 -0.1595498 0.9716438 0.1595498 0.9716438 0.1595498 0.0283562 -0.1595498
293 0.0260879 -0.1529933 0.9739121 0.1529933 0.9739121 0.1529933 0.0260879 -0.1529933
306 0.0239993 -0.1466766 0.9760007 0.1466766 0.9760007 0.1466766 0.0239993 -0.1466766
320 0.0220767 -0.1405945 0.9779233 0.1405945 0.9779233 0.1405945 0.0220767 -0.1405945
335 0.0203077 -0.1347414 0.9796923 0.1347414 0.9796923 0.1347414 0.0203077 -0.1347414
350 0.0186805 -0.1291116 0.9813195 0.1291116 0.9813195 0.1291116 0.0186805 -0.1291116
366 0.0171841 -0.1236992 0.9828159 0.1236992 0.9828159 0.1236992 0.0171841 -0.1236992
383 0.0158084 -0.1184981 0.9841916 0.1184981 0.9841916 0.1184981 0.0158084 -0.1184981
401 0.0145439 -0.1135019 0.9854561 0.1135019 0.9854561 0.1135019 0.0145439 -0.1135019
419 0.0133819 -0.1087043 0.9866181 0.1087043 0.9866181 0.1087043 0.0133819 -0.1087043
438 0.0123141 -0.1040992 0.9876859 0.1040992 0.9876859 0.1040992 0.0123141 -0.1040992
458 0.0113330 -0.0996800 0.9886670 0.0996800 0.9886670 0.0996800 0.0113330 -0.0996800
479 0.0104317 -0.0954404 0.9895683 0.0954404 0.9895683 0.0954404 0.0104317 -0.0954404
501 0.0096036 -0.0913743 0.9903964 0.0913743 0.9903964 0.0913743 0.0096036 -0.0913743
524 0.0088428 -0.0874755 0.9911572 0.0874755 0.9911572 0.0874755 0.0088428 -0.0874755
548 0.0081437 -0.0837378 0.9918563 0.0837378 0.9918563 0.0837378 0.0081437 -0.0837378
573 0.0075014 -0.0801553 0.9924986 0.0801553 0.9924986 0.0801553 0.0075014 -0.0801553
600 0.0069112 -0.0767221 0.9930888 0.0767221 0.9930888 0.0767221 0.0069112 -0.0767221
627 0.0063687 -0.0734326 0.9936313 0.0734326 0.9936313 0.0734326 0.0063687 -0.0734326
656 0.0058700 -0.0702812 0.9941300 0.0702812 0.9941300 0.0702812 0.0058700 -0.0702812
686 0.0054115 -0.0672624 0.9945885 0.0672624 0.9945885 0.0672624 0.0054115 -0.0672624
717 0.0049899 -0.0643710 0.9950101 0.0643710 0.9950101 0.0643710 0.0049899 -0.0643710
750 0.0046021 -0.0616019 0.9953979 0.0616019 0.9953979 0.0616019 0.0046021 -0.0616019
784 0.0042453 -0.0589501 0.9957547 0.0589501 0.9957547 0.0589501 0.0042453 -0.0589501
820 0.0039170 -0.0564109 0.9960830 0.0564109 0.9960830 0.0564109 0.0039170 -0.0564109
858 0.0036149 -0.0539796 0.9963851 0.0539796 0.9963851 0.0539796 0.0036149 -0.0539796
897 0.0033367 -0.0516519 0.9966633 0.0516519 0.9966633 0.0516519 0.0033367 -0.0516519
938 0.0030806 -0.0494234 0.9969194 0.0494234 0.9969194 0.0494234 0.0030806 -0.0494234
981 0.0028447 -0.0472900 0.9971553 0.0472900 0.9971553 0.0472900 0.0028447 -0.0472900
1026 0.0026275 -0.0452477 0.9973725 0.0452477 0.9973725 0.0452477 0.0026275 -0.0452477
1073 0.0024273 -0.0432928 0.9975727 0.0432928 0.9975727 0.0432928 0.0024273 -0.0432928
1122 0.0022430 -0.0414215 0.9977570 0.0414215 0.9977570 0.0414215 0.0022430 -0.0414215
1174 0.0020730 -0.0396303 0.9979270 0.0396303 0.9979270 0.0396303 0.0020730 -0.0396303
1227 0.0019165 -0.0379159 0.9980835 0.0379159 0.9980835 0.0379159 0.0019165 -0.0379159
1283 0.0017722 -0.0362751 0.9982278 0.0362751 0.9982278 0.0362751 0.0017722 -0.0362751
1342 0.0016392 -0.0347047 0.9983608 0.0347047 0.9983608 0.0347047 0.0016392 -0.0347047
1404 0.0015166 -0.0332018 0.9984834 0.0332018 0.9984834 0.0332018 0.0015166 -0.0332018
1468 0.0014036 -0.0317635 0.9985964 0.0317635 0.9985964 0.0317635 0.0014036 -0.0317635
1535 0.0012994 -0.0303871 0.9987006 0.0303871 0.9987006 0.0303871 0.0012994 -0.0303871
1606 0.0012034 -0.0290700 0.9987966 0.0290700 0.9987966 0.0290700 0.0012034 -0.0290700
1679 0.0011149 -0.0278096 0.9988851 0.0278096 0.9988851 0.0278096 0.0011149 -0.0278096
1756 0.0010333 -0.0266036 0.9989667 0.0266036 0.9989667 0.0266036 0.0010333 -0.0266036
1836 0.0009580 -0.0254496 0.9990420 0.0254496 0.9990420 0.0254496 0.0009580 -0.0254496
1920 0.0008886 -0.0243454 0.9991114 0.0243454 0.9991114 0.0243454 0.0008886 -0.0243454
2008 0.0008246 -0.0232890 0.9991754 0.0232890 0.9991754 0.0232890 0.0008246 -0.0232890
2100 0.0007655 -0.0222782 0.9992345 0.0222782 0.9992345 0.0222782 0.0007655 -0.0222782
2196 0.0007110 -0.0213112 0.9992890 0.0213112 0.9992890 0.0213112 0.0007110 -0.0213112
2297 0.0006606 -0.0203860 0.9993394 0.0203860 0.9993394 0.0203860 0.0006606 -0.0203860
2402 0.0006142 -0.0195009 0.9993858 0.0195009 0.9993858 0.0195009 0.0006142 -0.0195009
2512 0.0005712 -0.0186542 0.9994288 0.0186542 0.9994288 0.0186542 0.0005712 -0.0186542
2627 0.0005315 -0.0178441 0.9994685 0.0178441 0.9994685 0.0178441 0.0005315 -0.0178441
2748 0.0004948 -0.0170692 0.9995052 0.0170692 0.9995052 0.0170692 0.0004948 -0.0170692
2873 0.0004608 -0.0163279 0.9995392 0.0163279 0.9995392 0.0163279 0.0004608 -0.0163279
3005 0.0004294 -0.0156188 0.9995706 0.0156188 0.9995706 0.0156188 0.0004294 -0.0156188
3143 0.0004003 -0.0149404 0.9995997 0.0149404 0.9995997 0.0149404 0.0004003 -0.0149404
3287 0.0003732 -0.0142914 0.9996268 0.0142914 0.9996268 0.0142914 0.0003732 -0.0142914
3437 0.0003482 -0.0136706 0.9996518 0.0136706 0.9996518 0.0136706 0.0003482 -0.0136706
3594 0.0003250 -0.0130767 0.9996750 0.0130767 0.9996750 0.0130767 0.0003250 -0.0130767
3759 0.0003034 -0.0125086 0.9996966 0.0125086 0.9996966 0.0125086 0.0003034 -0.0125086
3931 0.0002833 -0.0119651 0.9997167 0.0119651 0.9997167 0.0119651 0.0002833 -0.0119651
4111 0.0002647 -0.0114451 0.9997353 0.0114451 0.9997353 0.0114451 0.0002647 -0.0114451
4299 0.0002473 -0.0109478 0.9997527 0.0109478 0.9997527 0.0109478 0.0002473 -0.0109478
4496 0.0002312 -0.0104719 0.9997688 0.0104719 0.9997688 0.0104719 0.0002312 -0.0104719
4702 0.0002162 -0.0100167 0.9997838 0.0100167 0.9997838 0.0100167 0.0002162 -0.0100167
4918 0.0002022 -0.0095812 0.9997978 0.0095812 0.9997978 0.0095812 0.0002022 -0.0095812
5143 0.0001892 -0.0091646 0.9998108 0.0091646 0.9998108 0.0091646 0.0001892 -0.0091646
5378 0.0001771 -0.0087660 0.9998229 0.0087660 0.9998229 0.0087660 0.0001771 -0.0087660
5625 0.0001658 -0.0083847 0.9998342 0.0083847 0.9998342 0.0083847 0.0001658 -0.0083847
5882 0.0001553 -0.0080199 0.9998447 0.0080199 0.9998447 0.0080199 0.0001553 -0.0080199
6151 0.0001456 -0.0076709 0.9998544 0.0076709 0.9998544 0.0076709 0.0001456 -0.0076709
6433 0.0001365 -0.0073370 0.9998635 0.0073370 0.9998635 0.0073370 0.0001365 -0.0073370
6728 0.0001280 -0.0070176 0.9998720 0.0070176 0.9998720 0.0070176 0.0001280 -0.0070176
7036 0.0001202 -0.0067120 0.9998798 0.0067120 0.9998798 0.0067120 0.0001202 -0.0067120
7358 0.0001129 -0.0064197 0.9998871 0.0064197 0.9998871 0.0064197 0.0001129 -0.0064197
7695 0.0001061 -0.0061400 0.9998939 0.0061400 0.9998939 0.0061400 0.0001061 -0.0061400
8047 0.0000999 -0.0058724 0.9999001 0.0058724 0.9999001 0.0058724 0.0000999 -0.0058724
8416 0.0000940 -0.0056164 0.9999060 0.0056164 0.9999060 0.0056164 0.0000940 -0.0056164
8801 0.0000886 -0.0053716 0.9999114 0.0053716 0.9999114 0.0053716 0.0000886 -0.0053716
9204 0.0000836 -0.0051373 0.9999164 0.0051373 0.9999164 0.0051373 0.0000836 -0.0051373
9626 0.0000790 -0.0049133 0.9999210 0.0049133 0.9999210 0.0049133 0.0000790 -0.0049133
10066 0.0000747 -0.0046989 0.9999253 0.0046989 0.9999253 0.0046989 0.0000747 -0.0046989
10527 0.0000708 -0.0044939 0.9999292 0.0044939 0.9999292 0.0044939 0.0000708 -0.0044939
11009 0.0000671 -0.0042978 0.9999329 0.0042978 0.9999329 0.0042978 0.0000671 -0.0042978
11514 0.0000637 -0.0041102 0.9999363 0.0041102 0.9999363 0.0041102 0.0000637 -0.0041102
12041 0.0000606 -0.0039307 0.9999394 0.0039307 0.9999394 0.0039307 0.0000606 -0.0039307
12592 0.0000577 -0.0037591 0.9999423 0.0037591 0.9999423 0.0037591 0.0000577 -0.0037591
13169 0.0000551 -0.0035949 0.9999449 0.0035949 0.9999449 0.0035949 0.0000551 -0.0035949
13772 0.0000526 -0.0034379 0.9999474 0.0034379 0.9999474 0.0034379 0.0000526 -0.0034379
14402 0.0000503 -0.0032877 0.9999497 0.0032877 0.9999497 0.0032877 0.0000503 -0.0032877
15062 0.0000483 -0.0031441 0.9999517 0.0031441 0.9999517 0.0031441 0.0000483 -0.0031441
15752 0.0000463 -0.0030067 0.9999537 0.0030067 0.9999537 0.0030067 0.0000463 -0.0030067
16473 0.0000446 -0.0028753 0.9999554 0.0028753 0.9999554 0.0028753 0.0000446 -0.0028753
17227 0.0000429 -0.0027496 0.9999571 0.0027496 0.9999571 0.0027496 0.0000429 -0.0027496
18016 0.0000414 -0.0026294 0.9999586 0.0026294 0.9999586 0.0026294 0.0000414 -0.0026294
18841 0.0000400 -0.0025145 0.9999600 0.0025145 0.9999600 0.0025145 0.0000400 -0.0025145
19704 0.0000387 -0.0024046 0.9999613 0.0024046 0.9999613 0.0024046 0.0000387 -0.0024046
20606 0.0000375 -0.0022995 0.9999625 0.0022995 0.9999625 0.0022995 0.0000375 -0.0022995
21550 0.0000364 -0.0021989 0.9999636 0.0021989 0.9999636 0.0021989 0.0000364 -0.0021989
22537 0.0000354 -0.0021028 0.9999646 0.0021028 0.9999646 0.0021028 0.0000354 -0.0021028
23569 0.0000345 -0.0020108 0.9999655 0.0020108 0.9999655 0.0020108 0.0000345 -0.0020108
24648 0.0000336 -0.0019229 0.9999664 0.0019229 0.9999664 0.0019229 0.0000336 -0.0019229
25777 0.0000328 -0.0018388 0.9999672 0.0018388 0.9999672 0.0018388 0.0000328 -0.0018388
26957 0.0000320 -0.0017584 0.9999680 0.0017584 0.9999680 0.0017584 0.0000320 -0.0017584
28191 0.0000313 -0.0016815 0.9999687 0.0016815 0.9999687 0.0016815 0.0000313 -0.0016815
29482 0.0000307 -0.0016079 0.9999693 0.0016079 0.9999693 0.0016079 0.0000307 -0.0016079
30832 0.0000301 -0.0015376 0.9999699 0.0015376 0.9999699 0.0015376 0.0000301 -0.0015376
32244 0.0000295 -0.0014703 0.9999705 0.0014703 0.9999705 0.0014703 0.0000295 -0.0014703
33721 0.0000289 -0.0014060 0.9999711 0.0014060 0.9999711 0.0014060 0.0000289 -0.0014060
35265 0.0000284 -0.0013444 0.9999716 0.0013444 0.9999716 0.0013444 0.0000284 -0.0013444
36880 0.0000280 -0.0012856 0.9999720 0.0012856 0.9999720 0.0012856 0.0000280 -0.0012856
38569 0.0000275 -0.0012293 0.9999725 0.0012293 0.9999725 0.0012293 0.0000275 -0.0012293
40335 0.0000271 -0.0011755 0.9999729 0.0011755 0.9999729 0.0011755 0.0000271 -0.0011755
42182 0.0000267 -0.0011240 0.9999733 0.0011240 0.9999733 0.0011240 0.0000267 -0.0011240
44113 0.0000263 -0.0010747 0.9999737 0.0010747 0.9999737 0.0010747 0.0000263 -0.0010747
46134 0.0000259 -0.0010276 0.9999741 0.0010276 0.9999741 0.0010276 0.0000259 -0.0010276
48246 0.0000256 -0.0009826 0.9999744 0.0009826 0.9999744 0.0009826 0.0000256 -0.0009826
50455 0.0000253 -0.0009395 0.9999747 0.0009395 0.9999747 0.0009395 0.0000253 -0.0009395
52766 0.0000249 -0.0008982 0.9999751 0.0008982 0.9999751 0.0008982 0.0000249 -0.0008982
55182 0.0000246 -0.0008588 0.9999754 0.0008588 0.9999754 0.0008588 0.0000246 -0.0008588
57709 0.0000244 -0.0008211 0.9999756 0.0008211 0.9999756 0.0008211 0.0000244 -0.0008211
60352 0.0000241 -0.0007850 0.9999759 0.0007850 0.9999759 0.0007850 0.0000241 -0.0007850
63115 0.0000238 -0.0007504 0.9999762 0.0007504 0.9999762 0.0007504 0.0000238 -0.0007504
66005 0.0000236 -0.0007174 0.9999764 0.0007174 0.9999764 0.0007174 0.0000236 -0.0007174
69028 0.0000233 -0.0006857 0.9999767 0.0006857 0.9999767 0.0006857 0.0000233 -0.0006857
72189 0.0000231 -0.0006555 0.9999769 0.0006555 0.9999769 0.0006555 0.0000231 -0.0006555
75495 0.0000229 -0.0006265 0.9999771 0.0006265 0.9999771 0.0006265 0.0000229 -0.0006265
78952 0.0000227 -0.0005988 0.9999773 0.0005988 0.9999773 0.0005988 0.0000227 -0.0005988
82567 0.0000225 -0.0005723 0.9999775 0.0005723 0.9999775 0.0005723 0.0000225 -0.0005723
86348 0.0000223 -0.0005469 0.9999777 0.0005469 0.9999777 0.0005469 0.0000223 -0.0005469
90302 0.0000222 -0.0005226 0.9999778 0.0005226 0.9999778 0.0005226 0.0000222 -0.0005226
94437 0.0000220 -0.0004993 0.9999780 0.0004993 0.9999780 0.0004993 0.0000220 -0.0004993
98762 0.0000218 -0.0004770 0.9999782 0.0004770 0.9999782 0.0004770 0.0000218 -0.0004770
103284 0.0000217 -0.0004557 0.9999783 0.0004557 0.9999783 0.0004557 0.0000217 -0.0004557
108014 0.0000216 -0.0004353 0.9999784 0.0004353 0.9999784 0.0004353 0.0000216 -0.0004353
112960 0.0000215 -0.0004157 0.9999785 0.0004157 0.9999785 0.0004157 0.0000215 -0.0004157
118133 0.0000213 -0.0003970 0.9999787 0.0003970 0.9999787 0.0003970 0.0000213 -0.0003970
123542 0.0000212 -0.0003791 0.9999788 0.0003791 0.9999788 0.0003791 0.0000212 -0.0003791
129199 0.0000212 -0.0003619 0.9999788 0.0003619 0.9999788 0.0003619 0.0000212 -0.0003619
135116 0.0000211 -0.0003454 0.9999789 0.0003454 0.9999789 0.0003454 0.0000211 -0.0003454
141303 0.0000210 -0.0003297 0.9999790 0.0003297 0.9999790 0.0003297 0.0000210 -0.0003297
147774 0.0000209 -0.0003146 0.9999791 0.0003146 0.9999791 0.0003146 0.0000209 -0.0003146
154540 0.0000209 -0.0003001 0.9999791 0.0003001 0.9999791 0.0003001 0.0000209 -0.0003001
161617 0.0000208 -0.0002862 0.9999792 0.0002862 0.9999792 0.0002862 0.0000208 -0.0002862
169018 0.0000208 -0.0002729 0.9999792 0.0002729 0.9999792 0.0002729 0.0000208 -0.0002729
176758 0.0000207 -0.0002601 0.9999793 0.0002601 0.9999793 0.0002601 0.0000207 -0.0002601
184852 0.0000207 -0.0002478 0.9999793 0.0002478 0.9999793 0.0002478 0.0000207 -0.0002478
193316 0.0000207 -0.0002361 0.9999793 0.0002361 0.9999793 0.0002361 0.0000207 -0.0002361
202169 0.0000207 -0.0002248 0.9999793 0.0002248 0.9999793 0.0002248 0.0000207 -0.0002248
211427 0.0000206 -0.0002139 0.9999794 0.0002139 0.9999794 0.0002139 0.0000206 -0.0002139
221108 0.0000206 -0.0002035 0.9999794 0.0002035 0.9999794 0.0002035 0.0000206 -0.0002035
231233 0.0000207 -0.0001935 0.9999793 0.0001935 0.9999793 0.0001935 0.0000207 -0.0001935
241822 0.0000207 -0.0001839 0.9999793 0.0001839 0.9999793 0.0001839 0.0000207 -0.0001839
252896 0.0000207 -0.0001747 0.9999793 0.0001747 0.9999793 0.0001747 0.0000207 -0.0001747
264476 0.0000207 -0.0001658 0.9999793 0.0001658 0.9999793 0.0001658 0.0000207 -0.0001658
276587 0.0000208 -0.0001572 0.9999792 0.0001572 0.9999792 0.0001572 0.0000208 -0.0001572
289253 0.0000208 -0.0001489 0.9999792 0.0001489 0.9999792 0.0001489 0.0000208 -0.0001489
302498 0.0000209 -0.0001410 0.9999791 0.0001410 0.9999791 0.0001410 0.0000209 -0.0001410
316350 0.0000209 -0.0001333 0.9999791 0.0001333 0.9999791 0.0001333 0.0000209 -0.0001333
330837 0.0000210 -0.0001259 0.9999790 0.0001259 0.9999790 0.0001259 0.0000210 -0.0001259
345986 0.0000211 -0.0001187 0.9999789 0.0001187 0.9999789 0.0001187 0.0000211 -0.0001187
361830 0.0000212 -0.0001118 0.9999788 0.0001118 0.9999788 0.0001118 0.0000212 -0.0001118
378399 0.0000213 -0.0001051 0.9999787 0.0001051 0.9999787 0.0001051 0.0000213 -0.0001051
395726 0.0000214 -0.0000987 0.9999786 0.0000987 0.9999786 0.0000987 0.0000214 -0.0000987
413847 0.0000216 -0.0000924 0.9999784 0.0000924 0.9999784 0.0000924 0.0000216 -0.0000924
432798 0.0000217 -0.0000863 0.9999783 0.0000863 0.9999783 0.0000863 0.0000217 -0.0000863
452617 0.0000219 -0.0000804 0.9999781 0.0000804 0.9999781 0.0000804 0.0000219 -0.0000804
473344 0.0000221 -0.0000746 0.9999779 0.0000746 0.9999779 0.0000746 0.0000221 -0.0000746
495019 0.0000223 -0.0000690 0.9999777 0.0000690 0.9999777 0.0000690 0.0000223 -0.0000690
517687 0.0000225 -0.0000635 0.9999775 0.0000635 0.9999775 0.0000635 0.0000225 -0.0000635
541393 0.0000228 -0.0000582 0.9999772 0.0000582 0.9999772 0.0000582 0.0000228 -0.0000582
566185 0.0000230 -0.0000530 0.9999770 0.0000530 0.9999770 0.0000530 0.0000230 -0.0000530
592111 0.0000234 -0.0000479 0.9999766 0.0000479 0.9999766 0.0000479 0.0000234 -0.0000479
619225 0.0000237 -0.0000429 0.9999763 0.0000429 0.9999763 0.0000429 0.0000237 -0.0000429
647581 0.0000241 -0.0000380 0.9999759 0.0000380 0.9999759 0.0000380 0.0000241 -0.0000380
677235 0.0000245 -0.0000331 0.9999755 0.0000331 0.9999755 0.0000331 0.0000245 -0.0000331
708247 0.0000250 -0.0000284 0.9999750 0.0000284 0.9999750 0.0000284 0.0000250 -0.0000284
740679 0.0000255 -0.0000237 0.9999745 0.0000237 0.9999745 0.0000237 0.0000255 -0.0000237
774597 0.0000260 -0.0000190 0.9999740 0.0000190 0.9999740 0.0000190 0.0000260 -0.0000190
810067 0.0000266 -0.0000144 0.9999734 0.0000144 0.9999734 0.0000144 0.0000266 -0.0000144
847162 0.0000273 -0.0000099 0.9999727 0.0000099 0.9999727 0.0000099 0.0000273 -0.0000099
885955 0.0000281 -0.0000054 0.9999719 0.0000054 0.9999719 0.0000054 0.0000281 -0.0000054
926525 0.0000289 -0.0000009 0.9999711 0.0000009 0.9999711 0.0000009 0.0000289 -0.0000009
968953 0.0000298 0.0000036 0.9999702 -0.0000036 0.9999702 -0.0000036 0.0000298 0.0000036
1013323 0.0000308 0.0000080 0.9999692 -0.0000080 0.9999692 -0.0000080 0.0000308 0.0000080
1059725 0.0000319 0.0000125 0.9999681 -0.0000125 0.9999681 -0.0000125 0.0000319 0.0000125
1108252 0.0000332 0.0000169 0.9999668 -0.0000169 0.9999668 -0.0000169 0.0000332 0.0000169
1159002 0.0000346 0.0000213 0.9999654 -0.0000213 0.9999654 -0.0000213 0.0000346 0.0000213
1212075 0.0000361 0.0000256 0.9999639 -0.0000256 0.9999639 -0.0000256 0.0000361 0.0000256
1267578 0.0000379 0.0000299 0.9999621 -0.0000299 0.9999621 -0.0000299 0.0000379 0.0000299
1325623 0.0000398 0.0000342 0.9999602 -0.0000342 0.9999602 -0.0000342 0.0000398 0.0000342
1386327 0.0000419 0.0000384 0.9999581 -0.0000384 0.9999581 -0.0000384 0.0000419 0.0000384
1449809 0.0000443 0.0000425 0.9999557 -0.0000425 0.9999557 -0.0000425 0.0000443 0.0000425
1516199 0.0000468 0.0000464 0.9999532 -0.0000464 0.9999532 -0.0000464 0.0000468 0.0000464
1585629 0.0000497 0.0000501 0.9999503 -0.0000501 0.9999503 -0.0000501 0.0000497 0.0000501
1658239 0.0000527 0.0000535 0.9999473 -0.0000535 0.9999473 -0.0000535 0.0000527 0.0000535
1734173 0.0000559 0.0000566 0.9999441 -0.0000566 0.9999441 -0.0000566 0.0000559 0.0000566
1813585 0.0000592 0.0000592 0.9999408 -0.0000592 0.9999408 -0.0000592 0.0000592 0.0000592
1896632 0.0000624 0.0000613 0.9999376 -0.0000613 0.9999376 -0.0000613 0.0000624 0.0000613
1983483 0.0000654 0.0000630 0.9999346 -0.0000630 0.9999346 -0.0000630 0.0000654 0.0000630
2074311 0.0000680 0.0000642 0.9999320 -0.0000642 0.9999320 -0.0000642 0.0000680 0.0000642
2169299 0.0000701 0.0000652 0.9999299 -0.0000652 0.9999299 -0.0000652 0.0000701 0.0000652
