!Murata Part Number: GRM31CR60J227ME11
!These Parameters are Measured in Series Mode Connection
!       o--ll--o
!Port1            Port2
!       o------o
!Operation Temp=25[C], DC Bias Voltage=0[V]
!Freq. Start=100[Hz] Stop=6000000000[Hz] 401[Steps]
# Hz S RI R 50
!Freq.(Hz) S11(Real) S11(Imag) S21(Real) S21(Imag) S12(Real) S12(Imag) S22(Real) S22(Imag)
100 0.0117069 -0.1016100 0.9882931 0.1016100 0.9882931 0.1016100 0.0117069 -0.1016100
105 0.0107798 -0.0972889 0.9892202 0.0972889 0.9892202 0.0972889 0.0107798 -0.0972889
109 0.0099282 -0.0931446 0.9900718 0.0931446 0.9900718 0.0931446 0.0099282 -0.0931446
114 0.0091459 -0.0891708 0.9908541 0.0891708 0.9908541 0.0891708 0.0091459 -0.0891708
120 0.0084272 -0.0853612 0.9915728 0.0853612 0.9915728 0.0853612 0.0084272 -0.0853612
125 0.0077669 -0.0817099 0.9922331 0.0817099 0.9922331 0.0817099 0.0077669 -0.0817099
131 0.0071602 -0.0782109 0.9928398 0.0782109 0.9928398 0.0782109 0.0071602 -0.0782109
137 0.0066025 -0.0748583 0.9933975 0.0748583 0.9933975 0.0748583 0.0066025 -0.0748583
143 0.0060900 -0.0716464 0.9939100 0.0716464 0.9939100 0.0716464 0.0060900 -0.0716464
150 0.0056187 -0.0685699 0.9943813 0.0685699 0.9943813 0.0685699 0.0056187 -0.0685699
156 0.0051854 -0.0656232 0.9948146 0.0656232 0.9948146 0.0656232 0.0051854 -0.0656232
164 0.0047868 -0.0628011 0.9952132 0.0628011 0.9952132 0.0628011 0.0047868 -0.0628011
171 0.0044200 -0.0600988 0.9955800 0.0600988 0.9955800 0.0600988 0.0044200 -0.0600988
179 0.0040826 -0.0575112 0.9959174 0.0575112 0.9959174 0.0575112 0.0040826 -0.0575112
187 0.0037719 -0.0550337 0.9962281 0.0550337 0.9962281 0.0550337 0.0037719 -0.0550337
196 0.0034859 -0.0526617 0.9965141 0.0526617 0.9965141 0.0526617 0.0034859 -0.0526617
205 0.0032225 -0.0503908 0.9967775 0.0503908 0.9967775 0.0503908 0.0032225 -0.0503908
214 0.0029799 -0.0482169 0.9970201 0.0482169 0.9970201 0.0482169 0.0029799 -0.0482169
224 0.0027563 -0.0461359 0.9972437 0.0461359 0.9972437 0.0461359 0.0027563 -0.0461359
234 0.0025503 -0.0441439 0.9974497 0.0441439 0.9974497 0.0441439 0.0025503 -0.0441439
245 0.0023604 -0.0422372 0.9976396 0.0422372 0.9976396 0.0422372 0.0023604 -0.0422372
256 0.0021854 -0.0404121 0.9978146 0.0404121 0.9978146 0.0404121 0.0021854 -0.0404121
268 0.0020240 -0.0386653 0.9979760 0.0386653 0.9979760 0.0386653 0.0020240 -0.0386653
280 0.0018752 -0.0369934 0.9981248 0.0369934 0.9981248 0.0369934 0.0018752 -0.0369934
293 0.0017380 -0.0353933 0.9982620 0.0353933 0.9982620 0.0353933 0.0017380 -0.0353933
306 0.0016114 -0.0338620 0.9983886 0.0338620 0.9983886 0.0338620 0.0016114 -0.0338620
320 0.0014947 -0.0323965 0.9985053 0.0323965 0.9985053 0.0323965 0.0014947 -0.0323965
335 0.0013871 -0.0309940 0.9986129 0.0309940 0.9986129 0.0309940 0.0013871 -0.0309940
350 0.0012877 -0.0296519 0.9987123 0.0296519 0.9987123 0.0296519 0.0012877 -0.0296519
366 0.0011961 -0.0283677 0.9988039 0.0283677 0.9988039 0.0283677 0.0011961 -0.0283677
383 0.0011116 -0.0271388 0.9988884 0.0271388 0.9988884 0.0271388 0.0011116 -0.0271388
401 0.0010335 -0.0259630 0.9989665 0.0259630 0.9989665 0.0259630 0.0010335 -0.0259630
419 0.0009615 -0.0248379 0.9990385 0.0248379 0.9990385 0.0248379 0.0009615 -0.0248379
438 0.0008950 -0.0237615 0.9991050 0.0237615 0.9991050 0.0237615 0.0008950 -0.0237615
458 0.0008336 -0.0227316 0.9991664 0.0227316 0.9991664 0.0227316 0.0008336 -0.0227316
479 0.0007768 -0.0217463 0.9992232 0.0217463 0.9992232 0.0217463 0.0007768 -0.0217463
501 0.0007244 -0.0208036 0.9992756 0.0208036 0.9992756 0.0208036 0.0007244 -0.0208036
524 0.0006759 -0.0199017 0.9993241 0.0199017 0.9993241 0.0199017 0.0006759 -0.0199017
548 0.0006310 -0.0190390 0.9993690 0.0190390 0.9993690 0.0190390 0.0006310 -0.0190390
573 0.0005894 -0.0182136 0.9994106 0.0182136 0.9994106 0.0182136 0.0005894 -0.0182136
600 0.0005510 -0.0174241 0.9994490 0.0174241 0.9994490 0.0174241 0.0005510 -0.0174241
627 0.0005153 -0.0166687 0.9994847 0.0166687 0.9994847 0.0166687 0.0005153 -0.0166687
656 0.0004822 -0.0159462 0.9995178 0.0159462 0.9995178 0.0159462 0.0004822 -0.0159462
686 0.0004515 -0.0152550 0.9995485 0.0152550 0.9995485 0.0152550 0.0004515 -0.0152550
717 0.0004229 -0.0145938 0.9995771 0.0145938 0.9995771 0.0145938 0.0004229 -0.0145938
750 0.0003963 -0.0139613 0.9996037 0.0139613 0.9996037 0.0139613 0.0003963 -0.0139613
784 0.0003716 -0.0133563 0.9996284 0.0133563 0.9996284 0.0133563 0.0003716 -0.0133563
820 0.0003485 -0.0127775 0.9996515 0.0127775 0.9996515 0.0127775 0.0003485 -0.0127775
858 0.0003270 -0.0122238 0.9996730 0.0122238 0.9996730 0.0122238 0.0003270 -0.0122238
897 0.0003070 -0.0116941 0.9996930 0.0116941 0.9996930 0.0116941 0.0003070 -0.0116941
938 0.0002882 -0.0111873 0.9997118 0.0111873 0.9997118 0.0111873 0.0002882 -0.0111873
981 0.0002707 -0.0107026 0.9997293 0.0107026 0.9997293 0.0107026 0.0002707 -0.0107026
1026 0.0002543 -0.0102388 0.9997457 0.0102388 0.9997457 0.0102388 0.0002543 -0.0102388
1073 0.0002389 -0.0097951 0.9997611 0.0097951 0.9997611 0.0097951 0.0002389 -0.0097951
1122 0.0002246 -0.0093706 0.9997754 0.0093706 0.9997754 0.0093706 0.0002246 -0.0093706
1174 0.0002111 -0.0089645 0.9997889 0.0089645 0.9997889 0.0089645 0.0002111 -0.0089645
1227 0.0001985 -0.0085760 0.9998015 0.0085760 0.9998015 0.0085760 0.0001985 -0.0085760
1283 0.0001867 -0.0082042 0.9998133 0.0082042 0.9998133 0.0082042 0.0001867 -0.0082042
1342 0.0001756 -0.0078486 0.9998244 0.0078486 0.9998244 0.0078486 0.0001756 -0.0078486
1404 0.0001652 -0.0075083 0.9998348 0.0075083 0.9998348 0.0075083 0.0001652 -0.0075083
1468 0.0001555 -0.0071827 0.9998445 0.0071827 0.9998445 0.0071827 0.0001555 -0.0071827
1535 0.0001463 -0.0068712 0.9998537 0.0068712 0.9998537 0.0068712 0.0001463 -0.0068712
1606 0.0001378 -0.0065732 0.9998622 0.0065732 0.9998622 0.0065732 0.0001378 -0.0065732
1679 0.0001297 -0.0062881 0.9998703 0.0062881 0.9998703 0.0062881 0.0001297 -0.0062881
1756 0.0001222 -0.0060152 0.9998778 0.0060152 0.9998778 0.0060152 0.0001222 -0.0060152
1836 0.0001151 -0.0057542 0.9998849 0.0057542 0.9998849 0.0057542 0.0001151 -0.0057542
1920 0.0001085 -0.0055045 0.9998915 0.0055045 0.9998915 0.0055045 0.0001085 -0.0055045
2008 0.0001023 -0.0052656 0.9998977 0.0052656 0.9998977 0.0052656 0.0001023 -0.0052656
2100 0.0000965 -0.0050370 0.9999035 0.0050370 0.9999035 0.0050370 0.0000965 -0.0050370
2196 0.0000911 -0.0048183 0.9999089 0.0048183 0.9999089 0.0048183 0.0000911 -0.0048183
2297 0.0000860 -0.0046091 0.9999140 0.0046091 0.9999140 0.0046091 0.0000860 -0.0046091
2402 0.0000812 -0.0044089 0.9999188 0.0044089 0.9999188 0.0044089 0.0000812 -0.0044089
2512 0.0000767 -0.0042174 0.9999233 0.0042174 0.9999233 0.0042174 0.0000767 -0.0042174
2627 0.0000725 -0.0040342 0.9999275 0.0040342 0.9999275 0.0040342 0.0000725 -0.0040342
2748 0.0000685 -0.0038589 0.9999315 0.0038589 0.9999315 0.0038589 0.0000685 -0.0038589
2873 0.0000648 -0.0036912 0.9999352 0.0036912 0.9999352 0.0036912 0.0000648 -0.0036912
3005 0.0000613 -0.0035308 0.9999387 0.0035308 0.9999387 0.0035308 0.0000613 -0.0035308
3143 0.0000580 -0.0033773 0.9999420 0.0033773 0.9999420 0.0033773 0.0000580 -0.0033773
3287 0.0000550 -0.0032305 0.9999450 0.0032305 0.9999450 0.0032305 0.0000550 -0.0032305
3437 0.0000521 -0.0030900 0.9999479 0.0030900 0.9999479 0.0030900 0.0000521 -0.0030900
3594 0.0000494 -0.0029557 0.9999506 0.0029557 0.9999506 0.0029557 0.0000494 -0.0029557
3759 0.0000468 -0.0028271 0.9999532 0.0028271 0.9999532 0.0028271 0.0000468 -0.0028271
3931 0.0000444 -0.0027041 0.9999556 0.0027041 0.9999556 0.0027041 0.0000444 -0.0027041
4111 0.0000422 -0.0025864 0.9999578 0.0025864 0.9999578 0.0025864 0.0000422 -0.0025864
4299 0.0000401 -0.0024738 0.9999599 0.0024738 0.9999599 0.0024738 0.0000401 -0.0024738
4496 0.0000381 -0.0023661 0.9999619 0.0023661 0.9999619 0.0023661 0.0000381 -0.0023661
4702 0.0000362 -0.0022631 0.9999638 0.0022631 0.9999638 0.0022631 0.0000362 -0.0022631
4918 0.0000345 -0.0021645 0.9999655 0.0021645 0.9999655 0.0021645 0.0000345 -0.0021645
5143 0.0000328 -0.0020702 0.9999672 0.0020702 0.9999672 0.0020702 0.0000328 -0.0020702
5378 0.0000313 -0.0019800 0.9999687 0.0019800 0.9999687 0.0019800 0.0000313 -0.0019800
5625 0.0000299 -0.0018937 0.9999701 0.0018937 0.9999701 0.0018937 0.0000299 -0.0018937
5882 0.0000286 -0.0018111 0.9999714 0.0018111 0.9999714 0.0018111 0.0000286 -0.0018111
6151 0.0000273 -0.0017321 0.9999727 0.0017321 0.9999727 0.0017321 0.0000273 -0.0017321
6433 0.0000262 -0.0016566 0.9999738 0.0016566 0.9999738 0.0016566 0.0000262 -0.0016566
6728 0.0000251 -0.0015843 0.9999749 0.0015843 0.9999749 0.0015843 0.0000251 -0.0015843
7036 0.0000241 -0.0015151 0.9999759 0.0015151 0.9999759 0.0015151 0.0000241 -0.0015151
7358 0.0000231 -0.0014489 0.9999769 0.0014489 0.9999769 0.0014489 0.0000231 -0.0014489
7695 0.0000222 -0.0013856 0.9999778 0.0013856 0.9999778 0.0013856 0.0000222 -0.0013856
8047 0.0000214 -0.0013251 0.9999786 0.0013251 0.9999786 0.0013251 0.0000214 -0.0013251
8416 0.0000207 -0.0012672 0.9999793 0.0012672 0.9999793 0.0012672 0.0000207 -0.0012672
8801 0.0000200 -0.0012118 0.9999800 0.0012118 0.9999800 0.0012118 0.0000200 -0.0012118
9204 0.0000193 -0.0011588 0.9999807 0.0011588 0.9999807 0.0011588 0.0000193 -0.0011588
9626 0.0000187 -0.0011081 0.9999813 0.0011081 0.9999813 0.0011081 0.0000187 -0.0011081
10066 0.0000182 -0.0010596 0.9999818 0.0010596 0.9999818 0.0010596 0.0000182 -0.0010596
10527 0.0000177 -0.0010132 0.9999823 0.0010132 0.9999823 0.0010132 0.0000177 -0.0010132
11009 0.0000172 -0.0009688 0.9999828 0.0009688 0.9999828 0.0009688 0.0000172 -0.0009688
11514 0.0000168 -0.0009264 0.9999832 0.0009264 0.9999832 0.0009264 0.0000168 -0.0009264
12041 0.0000164 -0.0008858 0.9999836 0.0008858 0.9999836 0.0008858 0.0000164 -0.0008858
12592 0.0000160 -0.0008469 0.9999840 0.0008469 0.9999840 0.0008469 0.0000160 -0.0008469
13169 0.0000157 -0.0008098 0.9999843 0.0008098 0.9999843 0.0008098 0.0000157 -0.0008098
13772 0.0000154 -0.0007743 0.9999846 0.0007743 0.9999846 0.0007743 0.0000154 -0.0007743
14402 0.0000151 -0.0007403 0.9999849 0.0007403 0.9999849 0.0007403 0.0000151 -0.0007403
15062 0.0000148 -0.0007078 0.9999852 0.0007078 0.9999852 0.0007078 0.0000148 -0.0007078
15752 0.0000146 -0.0006767 0.9999854 0.0006767 0.9999854 0.0006767 0.0000146 -0.0006767
16473 0.0000143 -0.0006469 0.9999857 0.0006469 0.9999857 0.0006469 0.0000143 -0.0006469
17227 0.0000141 -0.0006185 0.9999859 0.0006185 0.9999859 0.0006185 0.0000141 -0.0006185
18016 0.0000140 -0.0005913 0.9999860 0.0005913 0.9999860 0.0005913 0.0000140 -0.0005913
18841 0.0000138 -0.0005652 0.9999862 0.0005652 0.9999862 0.0005652 0.0000138 -0.0005652
19704 0.0000136 -0.0005403 0.9999864 0.0005403 0.9999864 0.0005403 0.0000136 -0.0005403
20606 0.0000135 -0.0005165 0.9999865 0.0005165 0.9999865 0.0005165 0.0000135 -0.0005165
21550 0.0000134 -0.0004937 0.9999866 0.0004937 0.9999866 0.0004937 0.0000134 -0.0004937
22537 0.0000132 -0.0004719 0.9999868 0.0004719 0.9999868 0.0004719 0.0000132 -0.0004719
23569 0.0000131 -0.0004510 0.9999869 0.0004510 0.9999869 0.0004510 0.0000131 -0.0004510
24648 0.0000130 -0.0004311 0.9999870 0.0004311 0.9999870 0.0004311 0.0000130 -0.0004311
25777 0.0000129 -0.0004120 0.9999871 0.0004120 0.9999871 0.0004120 0.0000129 -0.0004120
26957 0.0000129 -0.0003937 0.9999871 0.0003937 0.9999871 0.0003937 0.0000129 -0.0003937
28191 0.0000128 -0.0003762 0.9999872 0.0003762 0.9999872 0.0003762 0.0000128 -0.0003762
29482 0.0000127 -0.0003595 0.9999873 0.0003595 0.9999873 0.0003595 0.0000127 -0.0003595
30832 0.0000127 -0.0003435 0.9999873 0.0003435 0.9999873 0.0003435 0.0000127 -0.0003435
32244 0.0000126 -0.0003282 0.9999874 0.0003282 0.9999874 0.0003282 0.0000126 -0.0003282
33721 0.0000125 -0.0003135 0.9999875 0.0003135 0.9999875 0.0003135 0.0000125 -0.0003135
35265 0.0000125 -0.0002995 0.9999875 0.0002995 0.9999875 0.0002995 0.0000125 -0.0002995
36880 0.0000125 -0.0002861 0.9999875 0.0002861 0.9999875 0.0002861 0.0000125 -0.0002861
38569 0.0000124 -0.0002732 0.9999876 0.0002732 0.9999876 0.0002732 0.0000124 -0.0002732
40335 0.0000124 -0.0002609 0.9999876 0.0002609 0.9999876 0.0002609 0.0000124 -0.0002609
42182 0.0000124 -0.0002491 0.9999876 0.0002491 0.9999876 0.0002491 0.0000124 -0.0002491
44113 0.0000124 -0.0002378 0.9999876 0.0002378 0.9999876 0.0002378 0.0000124 -0.0002378
46134 0.0000123 -0.0002270 0.9999877 0.0002270 0.9999877 0.0002270 0.0000123 -0.0002270
48246 0.0000123 -0.0002166 0.9999877 0.0002166 0.9999877 0.0002166 0.0000123 -0.0002166
50455 0.0000123 -0.0002067 0.9999877 0.0002067 0.9999877 0.0002067 0.0000123 -0.0002067
52766 0.0000123 -0.0001972 0.9999877 0.0001972 0.9999877 0.0001972 0.0000123 -0.0001972
55182 0.0000123 -0.0001881 0.9999877 0.0001881 0.9999877 0.0001881 0.0000123 -0.0001881
57709 0.0000123 -0.0001793 0.9999877 0.0001793 0.9999877 0.0001793 0.0000123 -0.0001793
60352 0.0000123 -0.0001710 0.9999877 0.0001710 0.9999877 0.0001710 0.0000123 -0.0001710
63115 0.0000123 -0.0001629 0.9999877 0.0001629 0.9999877 0.0001629 0.0000123 -0.0001629
66005 0.0000124 -0.0001552 0.9999876 0.0001552 0.9999876 0.0001552 0.0000124 -0.0001552
69028 0.0000124 -0.0001478 0.9999876 0.0001478 0.9999876 0.0001478 0.0000124 -0.0001478
72189 0.0000124 -0.0001407 0.9999876 0.0001407 0.9999876 0.0001407 0.0000124 -0.0001407
75495 0.0000124 -0.0001339 0.9999876 0.0001339 0.9999876 0.0001339 0.0000124 -0.0001339
78952 0.0000124 -0.0001274 0.9999876 0.0001274 0.9999876 0.0001274 0.0000124 -0.0001274
82567 0.0000125 -0.0001211 0.9999875 0.0001211 0.9999875 0.0001211 0.0000125 -0.0001211
86348 0.0000125 -0.0001150 0.9999875 0.0001150 0.9999875 0.0001150 0.0000125 -0.0001150
90302 0.0000126 -0.0001092 0.9999874 0.0001092 0.9999874 0.0001092 0.0000126 -0.0001092
94437 0.0000126 -0.0001036 0.9999874 0.0001036 0.9999874 0.0001036 0.0000126 -0.0001036
98762 0.0000127 -0.0000982 0.9999873 0.0000982 0.9999873 0.0000982 0.0000127 -0.0000982
103284 0.0000127 -0.0000930 0.9999873 0.0000930 0.9999873 0.0000930 0.0000127 -0.0000930
108014 0.0000128 -0.0000880 0.9999872 0.0000880 0.9999872 0.0000880 0.0000128 -0.0000880
112960 0.0000129 -0.0000832 0.9999871 0.0000832 0.9999871 0.0000832 0.0000129 -0.0000832
118133 0.0000130 -0.0000785 0.9999870 0.0000785 0.9999870 0.0000785 0.0000130 -0.0000785
123542 0.0000131 -0.0000740 0.9999869 0.0000740 0.9999869 0.0000740 0.0000131 -0.0000740
129199 0.0000132 -0.0000697 0.9999868 0.0000697 0.9999868 0.0000697 0.0000132 -0.0000697
135116 0.0000133 -0.0000655 0.9999867 0.0000655 0.9999867 0.0000655 0.0000133 -0.0000655
141303 0.0000134 -0.0000614 0.9999866 0.0000614 0.9999866 0.0000614 0.0000134 -0.0000614
147774 0.0000135 -0.0000574 0.9999865 0.0000574 0.9999865 0.0000574 0.0000135 -0.0000574
154540 0.0000137 -0.0000536 0.9999863 0.0000536 0.9999863 0.0000536 0.0000137 -0.0000536
161617 0.0000138 -0.0000499 0.9999862 0.0000499 0.9999862 0.0000499 0.0000138 -0.0000499
169018 0.0000140 -0.0000463 0.9999860 0.0000463 0.9999860 0.0000463 0.0000140 -0.0000463
176758 0.0000142 -0.0000428 0.9999858 0.0000428 0.9999858 0.0000428 0.0000142 -0.0000428
184852 0.0000144 -0.0000393 0.9999856 0.0000393 0.9999856 0.0000393 0.0000144 -0.0000393
193316 0.0000146 -0.0000360 0.9999854 0.0000360 0.9999854 0.0000360 0.0000146 -0.0000360
202169 0.0000149 -0.0000327 0.9999851 0.0000327 0.9999851 0.0000327 0.0000149 -0.0000327
211427 0.0000151 -0.0000295 0.9999849 0.0000295 0.9999849 0.0000295 0.0000151 -0.0000295
221108 0.0000154 -0.0000264 0.9999846 0.0000264 0.9999846 0.0000264 0.0000154 -0.0000264
231233 0.0000157 -0.0000233 0.9999843 0.0000233 0.9999843 0.0000233 0.0000157 -0.0000233
241822 0.0000161 -0.0000203 0.9999839 0.0000203 0.9999839 0.0000203 0.0000161 -0.0000203
252896 0.0000165 -0.0000174 0.9999835 0.0000174 0.9999835 0.0000174 0.0000165 -0.0000174
264476 0.0000169 -0.0000144 0.9999831 0.0000144 0.9999831 0.0000144 0.0000169 -0.0000144
276587 0.0000173 -0.0000116 0.9999827 0.0000116 0.9999827 0.0000116 0.0000173 -0.0000116
289253 0.0000178 -0.0000087 0.9999822 0.0000087 0.9999822 0.0000087 0.0000178 -0.0000087
302498 0.0000183 -0.0000059 0.9999817 0.0000059 0.9999817 0.0000059 0.0000183 -0.0000059
316350 0.0000189 -0.0000031 0.9999811 0.0000031 0.9999811 0.0000031 0.0000189 -0.0000031
330837 0.0000195 -0.0000004 0.9999805 0.0000004 0.9999805 0.0000004 0.0000195 -0.0000004
345986 0.0000202 0.0000024 0.9999798 -0.0000024 0.9999798 -0.0000024 0.0000202 0.0000024
361830 0.0000209 0.0000052 0.9999791 -0.0000052 0.9999791 -0.0000052 0.0000209 0.0000052
378399 0.0000218 0.0000079 0.9999782 -0.0000079 0.9999782 -0.0000079 0.0000218 0.0000079
395726 0.0000227 0.0000107 0.9999773 -0.0000107 0.9999773 -0.0000107 0.0000227 0.0000107
413847 0.0000238 0.0000134 0.9999762 -0.0000134 0.9999762 -0.0000134 0.0000238 0.0000134
432798 0.0000251 0.0000162 0.9999749 -0.0000162 0.9999749 -0.0000162 0.0000251 0.0000162
452617 0.0000265 0.0000189 0.9999735 -0.0000189 0.9999735 -0.0000189 0.0000265 0.0000189
473344 0.0000283 0.0000216 0.9999717 -0.0000216 0.9999717 -0.0000216 0.0000283 0.0000216
495019 0.0000305 0.0000240 0.9999695 -0.0000240 0.9999695 -0.0000240 0.0000305 0.0000240
517687 0.0000331 0.0000260 0.9999669 -0.0000260 0.9999669 -0.0000260 0.0000331 0.0000260
541393 0.0000358 0.0000272 0.9999642 -0.0000272 0.9999642 -0.0000272 0.0000358 0.0000272
566185 0.0000381 0.0000274 0.9999619 -0.0000274 0.9999619 -0.0000274 0.0000381 0.0000274
592111 0.0000393 0.0000273 0.9999607 -0.0000273 0.9999607 -0.0000273 0.0000393 0.0000273
619225 0.0000395 0.0000277 0.9999605 -0.0000277 0.9999605 -0.0000277 0.0000395 0.0000277
647581 0.0000397 0.0000290 0.9999603 -0.0000290 0.9999603 -0.0000290 0.0000397 0.0000290
677235 0.0000405 0.0000307 0.9999595 -0.0000307 0.9999595 -0.0000307 0.0000405 0.0000307
708247 0.0000419 0.0000320 0.9999581 -0.0000320 0.9999581 -0.0000320 0.0000419 0.0000320
740679 0.0000432 0.0000325 0.9999568 -0.0000325 0.9999568 -0.0000325 0.0000432 0.0000325
774597 0.0000434 0.0000326 0.9999566 -0.0000326 0.9999566 -0.0000326 0.0000434 0.0000326
810067 0.0000428 0.0000334 0.9999572 -0.0000334 0.9999572 -0.0000334 0.0000428 0.0000334
847162 0.0000422 0.0000350 0.9999578 -0.0000350 0.9999578 -0.0000350 0.0000422 0.0000350
885955 0.0000419 0.0000372 0.9999581 -0.0000372 0.9999581 -0.0000372 0.0000419 0.0000372
926525 0.0000420 0.0000396 0.9999580 -0.0000396 0.9999580 -0.0000396 0.0000420 0.0000396
968953 0.0000424 0.0000420 0.9999576 -0.0000420 0.9999576 -0.0000420 0.0000424 0.0000420
1013323 0.0000430 0.0000444 0.9999570 -0.0000444 0.9999570 -0.0000444 0.0000430 0.0000444
1059725 0.0000437 0.0000468 0.9999563 -0.0000468 0.9999563 -0.0000468 0.0000437 0.0000468
1108252 0.0000445 0.0000491 0.9999555 -0.0000491 0.9999555 -0.0000491 0.0000445 0.0000491
1159002 0.0000454 0.0000514 0.9999546 -0.0000514 0.9999546 -0.0000514 0.0000454 0.0000514
1212075 0.0000462 0.0000537 0.9999538 -0.0000537 0.9999538 -0.0000537 0.0000462 0.0000537
1267578 0.0000471 0.0000560 0.9999529 -0.0000560 0.9999529 -0.0000560 0.0000471 0.0000560
1325623 0.0000480 0.0000584 0.9999520 -0.0000584 0.9999520 -0.0000584 0.0000480 0.0000584
1386327 0.0000489 0.0000607 0.9999511 -0.0000607 0.9999511 -0.0000607 0.0000489 0.0000607
1449809 0.0000498 0.0000631 0.9999502 -0.0000631 0.9999502 -0.0000631 0.0000498 0.0000631
1516199 0.0000507 0.0000656 0.9999493 -0.0000656 0.9999493 -0.0000656 0.0000507 0.0000656
1585629 0.0000515 0.0000681 0.9999485 -0.0000681 0.9999485 -0.0000681 0.0000515 0.0000681
1658239 0.0000524 0.0000707 0.9999476 -0.0000707 0.9999476 -0.0000707 0.0000524 0.0000707
1734173 0.0000533 0.0000734 0.9999467 -0.0000734 0.9999467 -0.0000734 0.0000533 0.0000734
1813585 0.0000541 0.0000761 0.9999459 -0.0000761 0.9999459 -0.0000761 0.0000541 0.0000761
1896632 0.0000550 0.0000790 0.9999450 -0.0000790 0.9999450 -0.0000790 0.0000550 0.0000790
1983483 0.0000559 0.0000819 0.9999441 -0.0000819 0.9999441 -0.0000819 0.0000559 0.0000819
2074311 0.0000567 0.0000850 0.9999433 -0.0000850 0.9999433 -0.0000850 0.0000567 0.0000850
2169299 0.0000576 0.0000882 0.9999424 -0.0000882 0.9999424 -0.0000882 0.0000576 0.0000882
