!Murata Part Number: GRM32EC80E337ME05
!These Parameters are Measured in Series Mode Connection
!       o--ll--o
!Port1            Port2
!       o------o
!Operation Temp=25[C], DC Bias Voltage=0[V]
!Freq. Start=100[Hz] Stop=6000000000[Hz] 401[Steps]
# Hz S RI R 50
!Freq.(Hz) S11(Real) S11(Imag) S21(Real) S21(Imag) S12(Real) S12(Imag) S22(Real) S22(Imag)
100 0.0055072 -0.0671932 0.9944928 0.0671932 0.9944928 0.0671932 0.0055072 -0.0671932
105 0.0050837 -0.0643092 0.9949163 0.0643092 0.9949163 0.0643092 0.0050837 -0.0643092
109 0.0046938 -0.0615468 0.9953062 0.0615468 0.9953062 0.0615468 0.0046938 -0.0615468
114 0.0043346 -0.0589011 0.9956654 0.0589011 0.9956654 0.0589011 0.0043346 -0.0589011
120 0.0040038 -0.0563674 0.9959962 0.0563674 0.9959962 0.0563674 0.0040038 -0.0563674
125 0.0036991 -0.0539410 0.9963009 0.0539410 0.9963009 0.0539410 0.0036991 -0.0539410
131 0.0034184 -0.0516177 0.9965816 0.0516177 0.9965816 0.0516177 0.0034184 -0.0516177
137 0.0031597 -0.0493930 0.9968403 0.0493930 0.9968403 0.0493930 0.0031597 -0.0493930
143 0.0029214 -0.0472630 0.9970786 0.0472630 0.9970786 0.0472630 0.0029214 -0.0472630
150 0.0027018 -0.0452237 0.9972982 0.0452237 0.9972982 0.0452237 0.0027018 -0.0452237
156 0.0024994 -0.0432714 0.9975006 0.0432714 0.9975006 0.0432714 0.0024994 -0.0432714
164 0.0023129 -0.0414024 0.9976871 0.0414024 0.9976871 0.0414024 0.0023129 -0.0414024
171 0.0021411 -0.0396133 0.9978589 0.0396133 0.9978589 0.0396133 0.0021411 -0.0396133
179 0.0019827 -0.0379008 0.9980173 0.0379008 0.9980173 0.0379008 0.0019827 -0.0379008
187 0.0018368 -0.0362615 0.9981632 0.0362615 0.9981632 0.0362615 0.0018368 -0.0362615
196 0.0017024 -0.0346926 0.9982976 0.0346926 0.9982976 0.0346926 0.0017024 -0.0346926
205 0.0015785 -0.0331910 0.9984215 0.0331910 0.9984215 0.0331910 0.0015785 -0.0331910
214 0.0014644 -0.0317539 0.9985356 0.0317539 0.9985356 0.0317539 0.0014644 -0.0317539
224 0.0013592 -0.0303786 0.9986408 0.0303786 0.9986408 0.0303786 0.0013592 -0.0303786
234 0.0012623 -0.0290625 0.9987377 0.0290625 0.9987377 0.0290625 0.0012623 -0.0290625
245 0.0011730 -0.0278032 0.9988270 0.0278032 0.9988270 0.0278032 0.0011730 -0.0278032
256 0.0010907 -0.0265982 0.9989093 0.0265982 0.9989093 0.0265982 0.0010907 -0.0265982
268 0.0010149 -0.0254452 0.9989851 0.0254452 0.9989851 0.0254452 0.0010149 -0.0254452
280 0.0009450 -0.0243420 0.9990550 0.0243420 0.9990550 0.0243420 0.0009450 -0.0243420
293 0.0008805 -0.0232866 0.9991195 0.0232866 0.9991195 0.0232866 0.0008805 -0.0232866
306 0.0008210 -0.0222769 0.9991790 0.0222769 0.9991790 0.0222769 0.0008210 -0.0222769
320 0.0007661 -0.0213109 0.9992339 0.0213109 0.9992339 0.0213109 0.0007661 -0.0213109
335 0.0007154 -0.0203868 0.9992846 0.0203868 0.9992846 0.0203868 0.0007154 -0.0203868
350 0.0006686 -0.0195028 0.9993314 0.0195028 0.9993314 0.0195028 0.0006686 -0.0195028
366 0.0006253 -0.0186571 0.9993747 0.0186571 0.9993747 0.0186571 0.0006253 -0.0186571
383 0.0005852 -0.0178482 0.9994148 0.0178482 0.9994148 0.0178482 0.0005852 -0.0178482
401 0.0005482 -0.0170745 0.9994518 0.0170745 0.9994518 0.0170745 0.0005482 -0.0170745
419 0.0005138 -0.0163343 0.9994862 0.0163343 0.9994862 0.0163343 0.0005138 -0.0163343
438 0.0004819 -0.0156263 0.9995181 0.0156263 0.9995181 0.0156263 0.0004819 -0.0156263
458 0.0004523 -0.0149491 0.9995477 0.0149491 0.9995477 0.0149491 0.0004523 -0.0149491
479 0.0004248 -0.0143014 0.9995752 0.0143014 0.9995752 0.0143014 0.0004248 -0.0143014
501 0.0003992 -0.0136818 0.9996008 0.0136818 0.9996008 0.0136818 0.0003992 -0.0136818
524 0.0003754 -0.0130891 0.9996246 0.0130891 0.9996246 0.0130891 0.0003754 -0.0130891
548 0.0003531 -0.0125222 0.9996469 0.0125222 0.9996469 0.0125222 0.0003531 -0.0125222
573 0.0003324 -0.0119799 0.9996676 0.0119799 0.9996676 0.0119799 0.0003324 -0.0119799
600 0.0003130 -0.0114612 0.9996870 0.0114612 0.9996870 0.0114612 0.0003130 -0.0114612
627 0.0002948 -0.0109650 0.9997052 0.0109650 0.9997052 0.0109650 0.0002948 -0.0109650
656 0.0002778 -0.0104903 0.9997222 0.0104903 0.9997222 0.0104903 0.0002778 -0.0104903
686 0.0002619 -0.0100362 0.9997381 0.0100362 0.9997381 0.0100362 0.0002619 -0.0100362
717 0.0002469 -0.0096018 0.9997531 0.0096018 0.9997531 0.0096018 0.0002469 -0.0096018
750 0.0002329 -0.0091862 0.9997671 0.0091862 0.9997671 0.0091862 0.0002329 -0.0091862
784 0.0002197 -0.0087887 0.9997803 0.0087887 0.9997803 0.0087887 0.0002197 -0.0087887
820 0.0002073 -0.0084083 0.9997927 0.0084083 0.9997927 0.0084083 0.0002073 -0.0084083
858 0.0001957 -0.0080445 0.9998043 0.0080445 0.9998043 0.0080445 0.0001957 -0.0080445
897 0.0001847 -0.0076963 0.9998153 0.0076963 0.9998153 0.0076963 0.0001847 -0.0076963
938 0.0001744 -0.0073633 0.9998256 0.0073633 0.9998256 0.0073633 0.0001744 -0.0073633
981 0.0001647 -0.0070446 0.9998353 0.0070446 0.9998353 0.0070446 0.0001647 -0.0070446
1026 0.0001555 -0.0067398 0.9998445 0.0067398 0.9998445 0.0067398 0.0001555 -0.0067398
1073 0.0001469 -0.0064481 0.9998531 0.0064481 0.9998531 0.0064481 0.0001469 -0.0064481
1122 0.0001387 -0.0061690 0.9998613 0.0061690 0.9998613 0.0061690 0.0001387 -0.0061690
1174 0.0001311 -0.0059020 0.9998689 0.0059020 0.9998689 0.0059020 0.0001311 -0.0059020
1227 0.0001238 -0.0056465 0.9998762 0.0056465 0.9998762 0.0056465 0.0001238 -0.0056465
1283 0.0001170 -0.0054021 0.9998830 0.0054021 0.9998830 0.0054021 0.0001170 -0.0054021
1342 0.0001106 -0.0051683 0.9998894 0.0051683 0.9998894 0.0051683 0.0001106 -0.0051683
1404 0.0001045 -0.0049445 0.9998955 0.0049445 0.9998955 0.0049445 0.0001045 -0.0049445
1468 0.0000987 -0.0047305 0.9999013 0.0047305 0.9999013 0.0047305 0.0000987 -0.0047305
1535 0.0000933 -0.0045256 0.9999067 0.0045256 0.9999067 0.0045256 0.0000933 -0.0045256
1606 0.0000882 -0.0043297 0.9999118 0.0043297 0.9999118 0.0043297 0.0000882 -0.0043297
1679 0.0000833 -0.0041422 0.9999167 0.0041422 0.9999167 0.0041422 0.0000833 -0.0041422
1756 0.0000787 -0.0039628 0.9999213 0.0039628 0.9999213 0.0039628 0.0000787 -0.0039628
1836 0.0000744 -0.0037911 0.9999256 0.0037911 0.9999256 0.0037911 0.0000744 -0.0037911
1920 0.0000703 -0.0036269 0.9999297 0.0036269 0.9999297 0.0036269 0.0000703 -0.0036269
2008 0.0000664 -0.0034698 0.9999336 0.0034698 0.9999336 0.0034698 0.0000664 -0.0034698
2100 0.0000627 -0.0033194 0.9999373 0.0033194 0.9999373 0.0033194 0.0000627 -0.0033194
2196 0.0000592 -0.0031756 0.9999408 0.0031756 0.9999408 0.0031756 0.0000592 -0.0031756
2297 0.0000559 -0.0030379 0.9999441 0.0030379 0.9999441 0.0030379 0.0000559 -0.0030379
2402 0.0000528 -0.0029062 0.9999472 0.0029062 0.9999472 0.0029062 0.0000528 -0.0029062
2512 0.0000499 -0.0027801 0.9999501 0.0027801 0.9999501 0.0027801 0.0000499 -0.0027801
2627 0.0000471 -0.0026595 0.9999529 0.0026595 0.9999529 0.0026595 0.0000471 -0.0026595
2748 0.0000444 -0.0025441 0.9999556 0.0025441 0.9999556 0.0025441 0.0000444 -0.0025441
2873 0.0000419 -0.0024337 0.9999581 0.0024337 0.9999581 0.0024337 0.0000419 -0.0024337
3005 0.0000396 -0.0023280 0.9999604 0.0023280 0.9999604 0.0023280 0.0000396 -0.0023280
3143 0.0000374 -0.0022269 0.9999626 0.0022269 0.9999626 0.0022269 0.0000374 -0.0022269
3287 0.0000353 -0.0021301 0.9999647 0.0021301 0.9999647 0.0021301 0.0000353 -0.0021301
3437 0.0000333 -0.0020376 0.9999667 0.0020376 0.9999667 0.0020376 0.0000333 -0.0020376
3594 0.0000315 -0.0019490 0.9999685 0.0019490 0.9999685 0.0019490 0.0000315 -0.0019490
3759 0.0000297 -0.0018642 0.9999703 0.0018642 0.9999703 0.0018642 0.0000297 -0.0018642
3931 0.0000281 -0.0017831 0.9999719 0.0017831 0.9999719 0.0017831 0.0000281 -0.0017831
4111 0.0000266 -0.0017055 0.9999734 0.0017055 0.9999734 0.0017055 0.0000266 -0.0017055
4299 0.0000252 -0.0016312 0.9999748 0.0016312 0.9999748 0.0016312 0.0000252 -0.0016312
4496 0.0000239 -0.0015601 0.9999761 0.0015601 0.9999761 0.0015601 0.0000239 -0.0015601
4702 0.0000226 -0.0014922 0.9999774 0.0014922 0.9999774 0.0014922 0.0000226 -0.0014922
4918 0.0000215 -0.0014271 0.9999785 0.0014271 0.9999785 0.0014271 0.0000215 -0.0014271
5143 0.0000204 -0.0013649 0.9999796 0.0013649 0.9999796 0.0013649 0.0000204 -0.0013649
5378 0.0000194 -0.0013053 0.9999806 0.0013053 0.9999806 0.0013053 0.0000194 -0.0013053
5625 0.0000185 -0.0012484 0.9999815 0.0012484 0.9999815 0.0012484 0.0000185 -0.0012484
5882 0.0000176 -0.0011939 0.9999824 0.0011939 0.9999824 0.0011939 0.0000176 -0.0011939
6151 0.0000168 -0.0011417 0.9999832 0.0011417 0.9999832 0.0011417 0.0000168 -0.0011417
6433 0.0000161 -0.0010919 0.9999839 0.0010919 0.9999839 0.0010919 0.0000161 -0.0010919
6728 0.0000154 -0.0010441 0.9999846 0.0010441 0.9999846 0.0010441 0.0000154 -0.0010441
7036 0.0000148 -0.0009985 0.9999852 0.0009985 0.9999852 0.0009985 0.0000148 -0.0009985
7358 0.0000142 -0.0009548 0.9999858 0.0009548 0.9999858 0.0009548 0.0000142 -0.0009548
7695 0.0000136 -0.0009131 0.9999864 0.0009131 0.9999864 0.0009131 0.0000136 -0.0009131
8047 0.0000131 -0.0008731 0.9999869 0.0008731 0.9999869 0.0008731 0.0000131 -0.0008731
8416 0.0000127 -0.0008349 0.9999873 0.0008349 0.9999873 0.0008349 0.0000127 -0.0008349
8801 0.0000123 -0.0007984 0.9999877 0.0007984 0.9999877 0.0007984 0.0000123 -0.0007984
9204 0.0000119 -0.0007634 0.9999881 0.0007634 0.9999881 0.0007634 0.0000119 -0.0007634
9626 0.0000115 -0.0007299 0.9999885 0.0007299 0.9999885 0.0007299 0.0000115 -0.0007299
10066 0.0000112 -0.0006980 0.9999888 0.0006980 0.9999888 0.0006980 0.0000112 -0.0006980
10527 0.0000109 -0.0006674 0.9999891 0.0006674 0.9999891 0.0006674 0.0000109 -0.0006674
11009 0.0000106 -0.0006381 0.9999894 0.0006381 0.9999894 0.0006381 0.0000106 -0.0006381
11514 0.0000104 -0.0006101 0.9999896 0.0006101 0.9999896 0.0006101 0.0000104 -0.0006101
12041 0.0000101 -0.0005833 0.9999899 0.0005833 0.9999899 0.0005833 0.0000101 -0.0005833
12592 0.0000099 -0.0005577 0.9999901 0.0005577 0.9999901 0.0005577 0.0000099 -0.0005577
13169 0.0000097 -0.0005332 0.9999903 0.0005332 0.9999903 0.0005332 0.0000097 -0.0005332
13772 0.0000095 -0.0005098 0.9999905 0.0005098 0.9999905 0.0005098 0.0000095 -0.0005098
14402 0.0000094 -0.0004873 0.9999906 0.0004873 0.9999906 0.0004873 0.0000094 -0.0004873
15062 0.0000092 -0.0004659 0.9999908 0.0004659 0.9999908 0.0004659 0.0000092 -0.0004659
15752 0.0000091 -0.0004454 0.9999909 0.0004454 0.9999909 0.0004454 0.0000091 -0.0004454
16473 0.0000090 -0.0004258 0.9999910 0.0004258 0.9999910 0.0004258 0.0000090 -0.0004258
17227 0.0000088 -0.0004070 0.9999912 0.0004070 0.9999912 0.0004070 0.0000088 -0.0004070
18016 0.0000087 -0.0003890 0.9999913 0.0003890 0.9999913 0.0003890 0.0000087 -0.0003890
18841 0.0000086 -0.0003719 0.9999914 0.0003719 0.9999914 0.0003719 0.0000086 -0.0003719
19704 0.0000086 -0.0003554 0.9999914 0.0003554 0.9999914 0.0003554 0.0000086 -0.0003554
20606 0.0000085 -0.0003397 0.9999915 0.0003397 0.9999915 0.0003397 0.0000085 -0.0003397
21550 0.0000084 -0.0003247 0.9999916 0.0003247 0.9999916 0.0003247 0.0000084 -0.0003247
22537 0.0000083 -0.0003103 0.9999917 0.0003103 0.9999917 0.0003103 0.0000083 -0.0003103
23569 0.0000083 -0.0002965 0.9999917 0.0002965 0.9999917 0.0002965 0.0000083 -0.0002965
24648 0.0000082 -0.0002833 0.9999918 0.0002833 0.9999918 0.0002833 0.0000082 -0.0002833
25777 0.0000082 -0.0002707 0.9999918 0.0002707 0.9999918 0.0002707 0.0000082 -0.0002707
26957 0.0000081 -0.0002587 0.9999919 0.0002587 0.9999919 0.0002587 0.0000081 -0.0002587
28191 0.0000081 -0.0002471 0.9999919 0.0002471 0.9999919 0.0002471 0.0000081 -0.0002471
29482 0.0000080 -0.0002361 0.9999920 0.0002361 0.9999920 0.0002361 0.0000080 -0.0002361
30832 0.0000080 -0.0002255 0.9999920 0.0002255 0.9999920 0.0002255 0.0000080 -0.0002255
32244 0.0000080 -0.0002154 0.9999920 0.0002154 0.9999920 0.0002154 0.0000080 -0.0002154
33721 0.0000080 -0.0002057 0.9999920 0.0002057 0.9999920 0.0002057 0.0000080 -0.0002057
35265 0.0000079 -0.0001964 0.9999921 0.0001964 0.9999921 0.0001964 0.0000079 -0.0001964
36880 0.0000079 -0.0001875 0.9999921 0.0001875 0.9999921 0.0001875 0.0000079 -0.0001875
38569 0.0000079 -0.0001790 0.9999921 0.0001790 0.9999921 0.0001790 0.0000079 -0.0001790
40335 0.0000079 -0.0001708 0.9999921 0.0001708 0.9999921 0.0001708 0.0000079 -0.0001708
42182 0.0000079 -0.0001630 0.9999921 0.0001630 0.9999921 0.0001630 0.0000079 -0.0001630
44113 0.0000079 -0.0001555 0.9999921 0.0001555 0.9999921 0.0001555 0.0000079 -0.0001555
46134 0.0000079 -0.0001483 0.9999921 0.0001483 0.9999921 0.0001483 0.0000079 -0.0001483
48246 0.0000079 -0.0001415 0.9999921 0.0001415 0.9999921 0.0001415 0.0000079 -0.0001415
50455 0.0000079 -0.0001349 0.9999921 0.0001349 0.9999921 0.0001349 0.0000079 -0.0001349
52766 0.0000079 -0.0001285 0.9999921 0.0001285 0.9999921 0.0001285 0.0000079 -0.0001285
55182 0.0000079 -0.0001225 0.9999921 0.0001225 0.9999921 0.0001225 0.0000079 -0.0001225
57709 0.0000079 -0.0001167 0.9999921 0.0001167 0.9999921 0.0001167 0.0000079 -0.0001167
60352 0.0000079 -0.0001111 0.9999921 0.0001111 0.9999921 0.0001111 0.0000079 -0.0001111
63115 0.0000079 -0.0001057 0.9999921 0.0001057 0.9999921 0.0001057 0.0000079 -0.0001057
66005 0.0000079 -0.0001006 0.9999921 0.0001006 0.9999921 0.0001006 0.0000079 -0.0001006
69028 0.0000079 -0.0000956 0.9999921 0.0000956 0.9999921 0.0000956 0.0000079 -0.0000956
72189 0.0000079 -0.0000908 0.9999921 0.0000908 0.9999921 0.0000908 0.0000079 -0.0000908
75495 0.0000080 -0.0000863 0.9999920 0.0000863 0.9999920 0.0000863 0.0000080 -0.0000863
78952 0.0000080 -0.0000819 0.9999920 0.0000819 0.9999920 0.0000819 0.0000080 -0.0000819
82567 0.0000080 -0.0000776 0.9999920 0.0000776 0.9999920 0.0000776 0.0000080 -0.0000776
86348 0.0000080 -0.0000735 0.9999920 0.0000735 0.9999920 0.0000735 0.0000080 -0.0000735
90302 0.0000081 -0.0000696 0.9999919 0.0000696 0.9999919 0.0000696 0.0000081 -0.0000696
94437 0.0000081 -0.0000658 0.9999919 0.0000658 0.9999919 0.0000658 0.0000081 -0.0000658
98762 0.0000082 -0.0000621 0.9999918 0.0000621 0.9999918 0.0000621 0.0000082 -0.0000621
103284 0.0000082 -0.0000586 0.9999918 0.0000586 0.9999918 0.0000586 0.0000082 -0.0000586
108014 0.0000083 -0.0000552 0.9999917 0.0000552 0.9999917 0.0000552 0.0000083 -0.0000552
112960 0.0000083 -0.0000519 0.9999917 0.0000519 0.9999917 0.0000519 0.0000083 -0.0000519
118133 0.0000084 -0.0000486 0.9999916 0.0000486 0.9999916 0.0000486 0.0000084 -0.0000486
123542 0.0000085 -0.0000455 0.9999915 0.0000455 0.9999915 0.0000455 0.0000085 -0.0000455
129199 0.0000086 -0.0000425 0.9999914 0.0000425 0.9999914 0.0000425 0.0000086 -0.0000425
135116 0.0000087 -0.0000396 0.9999913 0.0000396 0.9999913 0.0000396 0.0000087 -0.0000396
141303 0.0000088 -0.0000367 0.9999912 0.0000367 0.9999912 0.0000367 0.0000088 -0.0000367
147774 0.0000089 -0.0000339 0.9999911 0.0000339 0.9999911 0.0000339 0.0000089 -0.0000339
154540 0.0000090 -0.0000312 0.9999910 0.0000312 0.9999910 0.0000312 0.0000090 -0.0000312
161617 0.0000091 -0.0000285 0.9999909 0.0000285 0.9999909 0.0000285 0.0000091 -0.0000285
169018 0.0000093 -0.0000259 0.9999907 0.0000259 0.9999907 0.0000259 0.0000093 -0.0000259
176758 0.0000095 -0.0000234 0.9999905 0.0000234 0.9999905 0.0000234 0.0000095 -0.0000234
184852 0.0000097 -0.0000209 0.9999903 0.0000209 0.9999903 0.0000209 0.0000097 -0.0000209
193316 0.0000099 -0.0000184 0.9999901 0.0000184 0.9999901 0.0000184 0.0000099 -0.0000184
202169 0.0000101 -0.0000160 0.9999899 0.0000160 0.9999899 0.0000160 0.0000101 -0.0000160
211427 0.0000104 -0.0000136 0.9999896 0.0000136 0.9999896 0.0000136 0.0000104 -0.0000136
221108 0.0000107 -0.0000112 0.9999893 0.0000112 0.9999893 0.0000112 0.0000107 -0.0000112
231233 0.0000110 -0.0000088 0.9999890 0.0000088 0.9999890 0.0000088 0.0000110 -0.0000088
241822 0.0000114 -0.0000065 0.9999886 0.0000065 0.9999886 0.0000065 0.0000114 -0.0000065
252896 0.0000118 -0.0000041 0.9999882 0.0000041 0.9999882 0.0000041 0.0000118 -0.0000041
264476 0.0000122 -0.0000018 0.9999878 0.0000018 0.9999878 0.0000018 0.0000122 -0.0000018
276587 0.0000128 0.0000006 0.9999872 -0.0000006 0.9999872 -0.0000006 0.0000128 0.0000006
289253 0.0000134 0.0000030 0.9999866 -0.0000030 0.9999866 -0.0000030 0.0000134 0.0000030
302498 0.0000142 0.0000053 0.9999858 -0.0000053 0.9999858 -0.0000053 0.0000142 0.0000053
316350 0.0000151 0.0000077 0.9999849 -0.0000077 0.9999849 -0.0000077 0.0000151 0.0000077
330837 0.0000161 0.0000101 0.9999839 -0.0000101 0.9999839 -0.0000101 0.0000161 0.0000101
345986 0.0000174 0.0000124 0.9999826 -0.0000124 0.9999826 -0.0000124 0.0000174 0.0000124
361830 0.0000189 0.0000146 0.9999811 -0.0000146 0.9999811 -0.0000146 0.0000189 0.0000146
378399 0.0000208 0.0000166 0.9999792 -0.0000166 0.9999792 -0.0000166 0.0000208 0.0000166
395726 0.0000229 0.0000182 0.9999771 -0.0000182 0.9999771 -0.0000182 0.0000229 0.0000182
413847 0.0000251 0.0000193 0.9999749 -0.0000193 0.9999749 -0.0000193 0.0000251 0.0000193
432798 0.0000271 0.0000196 0.9999729 -0.0000196 0.9999729 -0.0000196 0.0000271 0.0000196
452617 0.0000286 0.0000195 0.9999714 -0.0000195 0.9999714 -0.0000195 0.0000286 0.0000195
473344 0.0000293 0.0000193 0.9999707 -0.0000193 0.9999707 -0.0000193 0.0000293 0.0000193
495019 0.0000294 0.0000196 0.9999706 -0.0000196 0.9999706 -0.0000196 0.0000294 0.0000196
517687 0.0000294 0.0000204 0.9999706 -0.0000204 0.9999706 -0.0000204 0.0000294 0.0000204
541393 0.0000296 0.0000217 0.9999704 -0.0000217 0.9999704 -0.0000217 0.0000296 0.0000217
566185 0.0000302 0.0000230 0.9999698 -0.0000230 0.9999698 -0.0000230 0.0000302 0.0000230
592111 0.0000311 0.0000240 0.9999689 -0.0000240 0.9999689 -0.0000240 0.0000311 0.0000240
619225 0.0000320 0.0000246 0.9999680 -0.0000246 0.9999680 -0.0000246 0.0000320 0.0000246
647581 0.0000325 0.0000249 0.9999675 -0.0000249 0.9999675 -0.0000249 0.0000325 0.0000249
677235 0.0000325 0.0000252 0.9999675 -0.0000252 0.9999675 -0.0000252 0.0000325 0.0000252
708247 0.0000320 0.0000259 0.9999680 -0.0000259 0.9999680 -0.0000259 0.0000320 0.0000259
740679 0.0000314 0.0000272 0.9999686 -0.0000272 0.9999686 -0.0000272 0.0000314 0.0000272
774597 0.0000309 0.0000288 0.9999691 -0.0000288 0.9999691 -0.0000288 0.0000309 0.0000288
810067 0.0000306 0.0000307 0.9999694 -0.0000307 0.9999694 -0.0000307 0.0000306 0.0000307
847162 0.0000306 0.0000328 0.9999694 -0.0000328 0.9999694 -0.0000328 0.0000306 0.0000328
885955 0.0000308 0.0000350 0.9999692 -0.0000350 0.9999692 -0.0000350 0.0000308 0.0000350
926525 0.0000311 0.0000371 0.9999689 -0.0000371 0.9999689 -0.0000371 0.0000311 0.0000371
968953 0.0000316 0.0000393 0.9999684 -0.0000393 0.9999684 -0.0000393 0.0000316 0.0000393
1013323 0.0000322 0.0000415 0.9999678 -0.0000415 0.9999678 -0.0000415 0.0000322 0.0000415
1059725 0.0000329 0.0000436 0.9999671 -0.0000436 0.9999671 -0.0000436 0.0000329 0.0000436
1108252 0.0000336 0.0000457 0.9999664 -0.0000457 0.9999664 -0.0000457 0.0000336 0.0000457
1159002 0.0000344 0.0000478 0.9999656 -0.0000478 0.9999656 -0.0000478 0.0000344 0.0000478
1212075 0.0000352 0.0000500 0.9999648 -0.0000500 0.9999648 -0.0000500 0.0000352 0.0000500
1267578 0.0000360 0.0000521 0.9999640 -0.0000521 0.9999640 -0.0000521 0.0000360 0.0000521
1325623 0.0000369 0.0000542 0.9999631 -0.0000542 0.9999631 -0.0000542 0.0000369 0.0000542
1386327 0.0000377 0.0000563 0.9999623 -0.0000563 0.9999623 -0.0000563 0.0000377 0.0000563
1449809 0.0000385 0.0000585 0.9999615 -0.0000585 0.9999615 -0.0000585 0.0000385 0.0000585
1516199 0.0000393 0.0000607 0.9999607 -0.0000607 0.9999607 -0.0000607 0.0000393 0.0000607
1585629 0.0000401 0.0000630 0.9999599 -0.0000630 0.9999599 -0.0000630 0.0000401 0.0000630
1658239 0.0000409 0.0000653 0.9999591 -0.0000653 0.9999591 -0.0000653 0.0000409 0.0000653
1734173 0.0000417 0.0000677 0.9999583 -0.0000677 0.9999583 -0.0000677 0.0000417 0.0000677
1813585 0.0000424 0.0000701 0.9999576 -0.0000701 0.9999576 -0.0000701 0.0000424 0.0000701
1896632 0.0000432 0.0000726 0.9999568 -0.0000726 0.9999568 -0.0000726 0.0000432 0.0000726
1983483 0.0000439 0.0000753 0.9999561 -0.0000753 0.9999561 -0.0000753 0.0000439 0.0000753
2074311 0.0000446 0.0000780 0.9999554 -0.0000780 0.9999554 -0.0000780 0.0000446 0.0000780
2169299 0.0000453 0.0000808 0.9999547 -0.0000808 0.9999547 -0.0000808 0.0000453 0.0000808
